(1020000000.000000) can0 0D0#3A4E04644102B200
(1020000000.001013) can0 033#123F19256DC127D0
(1020000000.001014) can0 00E#2054160208097380
(1020000000.002047) can0 193#00080803E8080000
(1020000000.002048) can0 107#0000000000000000
(1020000000.002049) can0 FFF#0000000000000000
(1020000000.003068) can0 20E#4E2007A158BFAFFF
(1020000000.003069) can0 522#DF7FD0007878001C
(1020000000.003070) can0 366#805DC8020147CE38
(1020000000.003071) can0 580#000000056F87FC40
(1020000000.004108) can0 434#014680A1326F5470
(1020000000.004109) can0 6E0#0257025402560255
(1020000000.004110) can0 498#840020003B80AC8D
(1020000000.004111) can0 125#900040DF40BE3F60
(1020000000.005116) can0 32D#00000420AC010020
(1020000000.005117) can0 4FD#11440A535B0D4A08
(1020000000.005132) can0 230#F0000002D4001E00
(1020000000.006097) can0 2E1#0000000000000004
(1020000000.006098) can0 354#200E40000001F400
(1020000000.006099) can0 5E1#893860070A00B880
(1020000000.007105) can0 162#2448029440121FC9
(1020000000.007106) can0 0A7#005111A5312D90A0
(1020000000.009717) can0 FFF#0000000000000000
(1020000000.010722) can0 153#00000000000C000A
(1020000000.010737) can0 295#0000000000001840
(1020000000.010738) can0 00E#2054160208097386
(1020000000.010739) can0 662#4C20000040000000
(1020000000.011743) can0 19C#10A02009C2002840
(1020000000.011744) can0 0D0#424E04664102B100
(1020000000.011745) can0 033#122F11256E0127D0
(1020000000.011759) can0 274#58F228F4507CADF9
(1020000000.012785) can0 6E0#0257025402570257
(1020000000.012787) can0 0C0#6000000000000000
(1020000000.013838) can0 69E#0440047D1FC01542
(1020000000.014856) can0 125#900040DF40A00160
(1020000000.014857) can0 585#0040000000020018
(1020000000.015855) can0 354#200E40000001EC80
(1020000000.016878) can0 5E1#893860070A00B480
(1020000000.016879) can0 28B#0000000000000000
(1020000000.016880) can0 0A7#005111A5412D90A0
(1020000000.016881) can0 1CA#3FF9FF8000000C38
(1020000000.019552) can0 3C1#7B551FBC796AE92E
(1020000000.020573) can0 2C1#01F36FC7C81EAD56
(1020000000.020575) can0 0D0#4A4E04664002B100
(1020000000.020590) can0 033#122F09240E4127D0
(1020000000.020591) can0 00E#2054160208097398
(1020000000.021592) can0 577#0000080000000146
(1020000000.021608) can0 193#00080803E8080000
(1020000000.022631) can0 107#0000000000000000
(1020000000.022632) can0 FFF#0000000000000000
(1020000000.022633) can0 20E#4E2007A159BFCFF7
(1020000000.022634) can0 522#DF7FD0007F80001C
(1020000000.023669) can0 366#805DC8020147CE38
(1020000000.023670) can0 580#00000005E807FC30
(1020000000.023671) can0 434#016860A1629F8480
(1020000000.023672) can0 6E0#0256025202580258
(1020000000.023673) can0 0BA#06982C441000068C
(1020000000.024670) can0 498#840020003880AD0E
(1020000000.024671) can0 419#0A9B464D045FC2EF
(1020000000.024672) can0 125#900040DF40BFE360
(1020000000.024673) can0 230#FF000002D4000000
(1020000000.025711) can0 2E1#0000000000000004
(1020000000.026690) can0 354#200E40000001DD80
(1020000000.026691) can0 5E1#893860070A00B480
(1020000000.026692) can0 162#2448029440121FC9
(1020000000.026693) can0 0A7#00510FA5312D90A0
(1020000000.027712) can0 5B3#0400000000000400
(1020000000.027713) can0 2A3#100002847A803C08
(1020000000.029313) can0 FFF#0000000000000000
(1020000000.030306) can0 FFF#0000000000000000
(1020000000.030307) can0 153#00000000000C000A
(1020000000.031289) can0 662#4C20000040000000
(1020000000.031290) can0 00E#2054160208097380
(1020000000.031291) can0 19C#149C2009C2002840
(1020000000.031292) can0 0D0#524E04603D02B300
(1020000000.031293) can0 033#123F01225E8127D0
(1020000000.032302) can0 274#58F22AF2507CADF9
(1020000000.032303) can0 6E0#0259025402580259
(1020000000.032304) can0 0C0#6000000000000000
(1020000000.033840) can0 69E#0440047D1FC01542
(1020000000.034839) can0 125#900040DF40BFC560
(1020000000.035878) can0 354#200E40000001DD80
(1020000000.035879) can0 5E1#893860070A00B480
(1020000000.036899) can0 28B#0000000000000000
(1020000000.036900) can0 6FC#0000073872B9F800
(1020000000.036901) can0 0A7#00511225412D90A0
(1020000000.036902) can0 239#00000069E00039C0
(1020000000.039992) can0 295#0000000000001840
(1020000000.040989) can0 0D0#5A4E04603C02B300
(1020000000.040990) can0 00E#2054160208097386
(1020000000.040991) can0 033#123EF9225EC127D0
(1020000000.040992) can0 0D7#0000020080000000
(1020000000.042011) can0 193#00080803E8080000
(1020000000.042012) can0 107#0000000000000000
(1020000000.042013) can0 FFF#0000000000000000
(1020000000.043017) can0 20E#4E2007A159BFCFFF
(1020000000.043019) can0 522#DF7FD0007F08001C
(1020000000.043035) can0 366#805DC8020147CE38
(1020000000.043036) can0 580#00000005E087FC30
(1020000000.044087) can0 434#0186C0A192AFB4B0
(1020000000.044088) can0 6E0#0256025402590257
(1020000000.044089) can0 498#840020003680AD4F
(1020000000.044090) can0 125#900040DF40BFA760
(1020000000.045061) can0 230#FE000002D4000200
(1020000000.045062) can0 3C1#7B551FBC38EBA92E
(1020000000.046089) can0 2E1#0000000000000004
(1020000000.046090) can0 354#200E40000001D600
(1020000000.046091) can0 5E1#893840070A00B480
(1020000000.047124) can0 162#2448029440121FC9
(1020000000.047129) can0 0A7#00511125312D90A0
(1020000000.047130) can0 497#0000000000000000
(1020000000.049875) can0 FFF#0000000000000000
(1020000000.050896) can0 153#00000000000C000A
(1020000000.050897) can0 662#4C20000040000000
(1020000000.050898) can0 00E#205416020809737A
(1020000000.050899) can0 19C#18982009C2002830
(1020000000.051916) can0 0D0#624E04603A02B400
(1020000000.051917) can0 033#123EF1267F0127D0
(1020000000.051918) can0 274#58F22CF0507CADF9
(1020000000.051919) can0 6E0#025A025402590258
(1020000000.052916) can0 0C0#6000000000000000
(1020000000.052918) can0 2E2#18080D4040000118
(1020000000.052919) can0 345#050202C23C774081
(1020000000.052920) can0 430#003E448C548011A0
(1020000000.053959) can0 130#0001600000000000
(1020000000.053960) can0 4CB#8000000000000000
(1020000000.053961) can0 32D#00000420AC010020
(1020000000.053962) can0 280#18E0027000000000
(1020000000.053963) can0 69E#0440047D1FC01542
(1020000000.054914) can0 125#900040DF40BF8960
(1020000000.054915) can0 4FD#11460A535F0DCA08
(1020000000.054916) can0 26E#0106408289120A04
(1020000000.055977) can0 354#200E40000001D600
(1020000000.055978) can0 5E1#893840070A00B880
(1020000000.056999) can0 28B#0000000000000000
(1020000000.057000) can0 0A7#005110A5412D90A0
(1020000000.057001) can0 2D2#0000380000000000
(1020000000.057002) can0 277#1E01800000000108
(1020000000.057998) can0 66C#0080100018000020
(1020000000.057999) can0 2AB#A4D0C9D7E2D7CAFF
(1020000000.058000) can0 FFF#0000000000000000
(1020000000.059019) can0 FFF#0000000000000000
(1020000000.059020) can0 0F4#9A0C010204B10240
(1020000000.059021) can0 6D7#41038F009007223C
(1020000000.060039) can0 12C#7906E0000001FDD0
(1020000000.061040) can0 0D0#6A4E04623902B400
(1020000000.061041) can0 033#1236E91EBF4127D0
(1020000000.061042) can0 00E#2054160208097386
(1020000000.062043) can0 193#00080803E8080000
(1020000000.062060) can0 107#0000000000000000
(1020000000.062061) can0 FFF#0000000000000000
(1020000000.063046) can0 20E#4E2003A159BFCFFF
(1020000000.063047) can0 522#DF7FD0007E90001C
(1020000000.063048) can0 366#805DC8020147CE38
(1020000000.063049) can0 580#00000005D907FC30
(1020000000.064069) can0 434#01A600A1C2DFC4E0
(1020000000.064070) can0 6E0#025B025402580259
(1020000000.064071) can0 0BA#06982C441000068C
(1020000000.064072) can0 498#840020004580AD40
(1020000000.065086) can0 533#ED7FCF7EFFF4EF7F
(1020000000.065087) can0 125#900040DF40BF6B60
(1020000000.065088) can0 230#FD000002D4000400
(1020000000.066128) can0 2E1#0000000000000004
(1020000000.066129) can0 354#200E40000001C700
(1020000000.066130) can0 5E1#893840070A00B880
(1020000000.067128) can0 162#2448029440121FC9
(1020000000.067129) can0 0A7#00511225312D80A0
(1020000000.067130) can0 3A2#000000000801E000
(1020000000.069543) can0 3C1#7B551FBBB8EC292E
(1020000000.070564) can0 FFF#0000000000000000
(1020000000.070566) can0 4E7#00000014036C0000
(1020000000.070567) can0 00E#2054160208097380
(1020000000.071565) can0 153#00000000000C000A
(1020000000.071566) can0 FFF#0000000000000000
(1020000000.071567) can0 295#0000000000001840
(1020000000.071568) can0 662#4C20000040000000
(1020000000.072585) can0 684#4CD47F99415ED01E
(1020000000.072587) can0 636#249C1F810C88C000
(1020000000.072588) can0 2D7#100060D800000008
(1020000000.072589) can0 19C#1C942009C2002830
(1020000000.073607) can0 0D0#724E04623802B400
(1020000000.073608) can0 033#1236E11EBF8127D0
(1020000000.073612) can0 274#58F22EEE507CADF9
(1020000000.073613) can0 6E0#025B025602590259
(1020000000.073614) can0 0C0#6000000000000000
(1020000000.074609) can0 3E4#00D4000084000000
(1020000000.074610) can0 69E#0440047D1FC01542
(1020000000.074611) can0 125#900040DF40BF4D60
(1020000000.074612) can0 65C#400812A58A500000
(1020000000.075626) can0 577#0000080000000146
(1020000000.075627) can0 5FD#BDDDFDFFFEFFEDDA
(1020000000.075628) can0 354#200E400000023000
(1020000000.076627) can0 5E1#893840070A00BC80
(1020000000.076628) can0 28B#0000000000000000
(1020000000.076629) can0 0A7#00510F25312D80A0
(1020000000.076630) can0 407#38925FF000019AA0
(1020000000.080400) can0 00E#205416020809737A
(1020000000.081417) can0 0D0#7A4E04643702B400
(1020000000.081418) can0 033#122ED9267FC127D0
(1020000000.082418) can0 193#00080803E8080000
(1020000000.082419) can0 107#0000000000000000
(1020000000.082420) can0 FFF#0000000000000000
(1020000000.082421) can0 20E#4E2003A15BBFCFFF
(1020000000.083441) can0 522#DF7FD0007E18001C
(1020000000.083443) can0 366#809DC8020147CE38
(1020000000.083444) can0 580#00000005D187FC30
(1020000000.083445) can0 434#01C640A1D30FF4F0
(1020000000.084459) can0 6E0#025A02540259025A
(1020000000.084461) can0 498#840020004380AD81
(1020000000.084462) can0 464#0002400000900F5F
(1020000000.084463) can0 125#900040DF40BF2F60
(1020000000.085480) can0 230#FC000002D4000600
(1020000000.085482) can0 0FD#0000010080100000
(1020000000.085483) can0 03C#0000040033000000
(1020000000.085483) can0 FFF#0000000000000000
(1020000000.086501) can0 207#040460482ADED518
(1020000000.086502) can0 2E1#0000000000000004
(1020000000.086503) can0 354#200E400000023000
(1020000000.086504) can0 5E1#893840070A00BC80
(1020000000.086505) can0 162#2448029440121FC9
(1020000000.087521) can0 0A7#00511025312D80A0
(1020000000.087522) can0 2B4#14EA020000005800
(1020000000.087523) can0 4C9#01F915820D02F64B
(1020000000.087524) can0 1D6#020B808030240580
(1020000000.088541) can0 1A4#00000002ECCC0000
(1020000000.089856) can0 FFF#0000000000000000
(1020000000.090875) can0 153#00000000000C000A
(1020000000.090876) can0 662#4C20000040000000
(1020000000.090877) can0 00E#2054160208097380
(1020000000.090878) can0 19C#00B02009C2002830
(1020000000.091875) can0 0D0#024E04644502B500
(1020000000.091876) can0 033#122F51210C0127D0
(1020000000.091877) can0 274#58F220FC507CADF9
(1020000000.091878) can0 6E0#0259025502590259
(1020000000.092894) can0 0C0#6000000000000000
(1020000000.093915) can0 69E#0440047D1FC01542
(1020000000.094915) can0 125#900040DF40BF1160
(1020000000.094916) can0 3C1#7B551FBAB92CE92E
(1020000000.095938) can0 354#200E400000022880
(1020000000.095940) can0 5E1#893840070A00BC80
(1020000000.096956) can0 28B#0000000000000000
(1020000000.096958) can0 0A7#00510FA5412D80A0
(1020000000.096959) can0 03D#0001880000000000
(1020000000.100021) can0 295#0000000000001840
(1020000000.100983) can0 0D0#0A4E04644402B500
(1020000000.100985) can0 00E#2054160208097386
(1020000000.100986) can0 033#122F49210C4127D0
(1020000000.102001) can0 193#00080803E8080000
(1020000000.102002) can0 20E#4E2003A15BBFCFF7
(1020000000.102003) can0 522#DF7FD0007DA0001C
(1020000000.103004) can0 107#0000000000000000
(1020000000.103005) can0 FFF#0000000000000000
(1020000000.103006) can0 366#809DC8020147CE38
(1020000000.103008) can0 580#00000005CA07FC30
(1020000000.104027) can0 434#01E5A0A203102520
(1020000000.104032) can0 6E0#025902590259025A
(1020000000.104033) can0 0BA#06982C841000068C
(1020000000.104034) can0 125#900040DF40BEF360
(1020000000.105021) can0 273#0000000800000000
(1020000000.105022) can0 1C4#017202002807BE02
(1020000000.105023) can0 2A4#2020031C040898D0
(1020000000.105024) can0 FFF#0000000000000000
(1020000000.106035) can0 371#0106000000000880
(1020000000.106036) can0 67D#0018600208000220
(1020000000.106037) can0 2E1#0000000000000004
(1020000000.106038) can0 354#200E400000021980
(1020000000.107061) can0 5E1#893840070A00BC80
(1020000000.107062) can0 162#2448029440121FC9
(1020000000.107063) can0 0A7#00510F25412D80A0
(1020000000.107064) can0 55C#101B000041823000
(1020000000.107065) can0 51B#2909183F01060801
(1020000000.108055) can0 498#840020004280AD82
(1020000000.108056) can0 32D#00000420AC010020
(1020000000.108057) can0 0CC#4341183238AFA216
(1020000000.108058) can0 4FD#11480A53610DCA08
(1020000000.109076) can0 FFF#0000000000000000
(1020000000.109077) can0 230#FB000002D4000800
(1020000000.110095) can0 FFF#0000000000000000
(1020000000.110096) can0 153#00000000000C000A
(1020000000.111097) can0 662#4C20000040000000
(1020000000.111098) can0 00E#205416020809738C
(1020000000.111099) can0 19C#04AC2009C2002830
(1020000000.111100) can0 0D0#124E04664302B500
(1020000000.112121) can0 033#123741251C8127D0
(1020000000.112122) can0 274#58F222FA507CADF9
(1020000000.112123) can0 6E0#025B02580258025A
(1020000000.112124) can0 0C0#6000000000000000
(1020000000.113770) can0 69E#0440047D1FC01542
(1020000000.114819) can0 125#900040DF40BED560
(1020000000.114820) can0 585#0040000000020018
(1020000000.115840) can0 354#200E400000021980
(1020000000.115841) can0 5E1#893840070A00B880
(1020000000.116863) can0 28B#0000000000000000
(1020000000.116864) can0 0A7#005113A5412D80A0
(1020000000.116865) can0 1CA#3FF9FF8000000C38
(1020000000.119529) can0 3C1#7B551FBAF86D692E
(1020000000.120530) can0 0D0#1A4E04664202B500
(1020000000.120531) can0 033#12373924BCC127D0
(1020000000.120532) can0 00E#205416020809737A
(1020000000.121548) can0 577#0000080000000146
(1020000000.121549) can0 193#00080803E8080000
(1020000000.122537) can0 107#0000000000000000
(1020000000.122538) can0 FFF#0000000000000000
(1020000000.122539) can0 20E#4E2003A15B3FCFFF
(1020000000.122540) can0 522#DF7FD0007D28001C
(1020000000.123599) can0 366#809DC8020147CE38
(1020000000.123601) can0 580#00000005C287FC30
(1020000000.123616) can0 434#020820A233405550
(1020000000.123617) can0 6E0#025C02570258025A
(1020000000.124599) can0 498#840020004180AD83
(1020000000.124600) can0 125#900040DF40BEB760
(1020000000.124601) can0 230#FA000002D4000A00
(1020000000.124602) can0 2C1#01F30FC7C81E9D6C
(1020000000.125640) can0 2E1#0000000000000004
(1020000000.126641) can0 354#200E400000021200
(1020000000.126642) can0 5E1#893840070A00B880
(1020000000.126658) can0 162#2448029440121FC9
(1020000000.126659) can0 0A7#00511325312D80A0
(1020000000.127661) can0 5B3#0400000000000400
(1020000000.127677) can0 2A3#100002847C803C08
(1020000000.129224) can0 FFF#0000000000000000
(1020000000.130245) can0 FFF#0000000000000000
(1020000000.130246) can0 FFF#0000000000000000
(1020000000.130247) can0 153#00000000000C000A
(1020000000.131282) can0 295#0000000000001840
(1020000000.131283) can0 00E#205416020809738C
(1020000000.131284) can0 662#4C20000040000000
(1020000000.131285) can0 19C#08A82009C2002830
(1020000000.132302) can0 0D0#224E04664102B500
(1020000000.132303) can0 033#12373124BD0127D0
(1020000000.132304) can0 274#58F224F8507CADF9
(1020000000.132305) can0 6E0#025D0257025A025A
(1020000000.132306) can0 0C0#6000000000000000
(1020000000.133318) can0 FFF#0000000000000000
(1020000000.134302) can0 69E#0440047D1FC01542
(1020000000.134304) can0 125#900040DF40BE9960
(1020000000.135667) can0 354#200E400000021200
(1020000000.136679) can0 5E1#893840070A00B880
(1020000000.136680) can0 28B#0000000000000000
(1020000000.136681) can0 6FC#0000073872B9F800
(1020000000.136682) can0 0A7#00511325312D80A0
(1020000000.137698) can0 239#00000069C00039A0
(1020000000.140121) can0 0D7#0000020080000000
(1020000000.141157) can0 00E#2054160208097386
(1020000000.141158) can0 0D0#2A4E04604002B500
(1020000000.141159) can0 033#123729200D4127D0
(1020000000.142164) can0 107#0000000000000000
(1020000000.142165) can0 FFF#0000000000000000
(1020000000.142166) can0 193#00080803E8080000
(1020000000.143200) can0 20E#4E2003A15CBFAFF7
(1020000000.143201) can0 522#DF7FD0007CB0001C
(1020000000.143202) can0 366#809DC8020147CE38
(1020000000.143203) can0 580#00000005C307FC20
(1020000000.144185) can0 434#022820A243706560
(1020000000.144186) can0 6E0#025D0257025A025A
(1020000000.144187) can0 0BA#06982C841000068C
(1020000000.144188) can0 125#900040DF40BE7B60
(1020000000.145195) can0 498#840020003F80ADC4
(1020000000.145196) can0 230#F9000002D4000C00
(1020000000.145197) can0 3C1#7B551FBC762E292E
(1020000000.146230) can0 2E1#0000000000000004
(1020000000.146244) can0 354#200E400000020300
(1020000000.146245) can0 5E1#893840070A00B880
(1020000000.147283) can0 162#2448028440121FC9
(1020000000.147284) can0 0A7#00511225312D80A0
(1020000000.147285) can0 497#0000000000000000
(1020000000.150009) can0 FFF#0000000000000000
(1020000000.151027) can0 153#00000000000C000A
(1020000000.151028) can0 00E#205416020809738C
(1020000000.151029) can0 662#4C40000040000000
(1020000000.151030) can0 19C#0CA42009C2002830
(1020000000.152048) can0 0D0#324E04603E02B600
(1020000000.152049) can0 033#123721267D8127D0
(1020000000.152050) can0 274#58F226F6507CADF9
(1020000000.152051) can0 6E0#025D0256025A025B
(1020000000.153035) can0 0C0#6000000000000000
(1020000000.153036) can0 2E2#18080D4040000118
(1020000000.153053) can0 345#050202C23C774081
(1020000000.153054) can0 430#003E448C568011A0
(1020000000.154055) can0 130#0001600000000000
(1020000000.154071) can0 1E5#01460405A841A3E0
(1020000000.154072) can0 32D#00000420AC010020
(1020000000.154073) can0 4FD#114D0A53670ECA08
(1020000000.154074) can0 69E#0440047D1FC01542
(1020000000.155084) can0 125#900040DF40BE5D60
(1020000000.156088) can0 26E#0106408289120A04
(1020000000.156089) can0 354#200E40000001F400
(1020000000.156090) can0 5E1#893840070A00BC80
(1020000000.157109) can0 28B#0000000000000000
(1020000000.157110) can0 0A7#00510E25312D80A0
(1020000000.157111) can0 2D2#0000400000000000
(1020000000.158114) can0 66C#0080100020000020
(1020000000.158131) can0 FFF#0000000000000000
(1020000000.159150) can0 FFF#0000000000000000
(1020000000.159151) can0 0F4#9A0C010204B10240
(1020000000.160170) can0 295#0000000000001840
(1020000000.161152) can0 0D0#3A4E04623D02B600
(1020000000.161153) can0 00E#2054160208097380
(1020000000.161154) can0 033#122F19267DC127D0
(1020000000.162255) can0 193#00080803E8080000
(1020000000.162256) can0 107#0000000000000000
(1020000000.162260) can0 FFF#0000000000000000
(1020000000.163239) can0 20E#4E200BA15D3FAFF7
(1020000000.163240) can0 522#DF7FD0007C38001C
(1020000000.163242) can0 366#809DC8020147CE38
(1020000000.163243) can0 580#00000005BB87FC20
(1020000000.164172) can0 434#024000A273809590
(1020000000.164173) can0 6E0#025C025A025A025C
(1020000000.164174) can0 0F1#3E101CC00359CC00
(1020000000.164175) can0 125#900040DF40BE3F60
(1020000000.164176) can0 498#840020003D80AE05
(1020000000.165238) can0 230#F8000002D4000E00
(1020000000.166211) can0 2E1#0000000000000004
(1020000000.166212) can0 354#200E40000001F400
(1020000000.166213) can0 5E1#893820070A00B880
(1020000000.167259) can0 162#2448028440121FC9
(1020000000.167260) can0 0A7#00510FA5312D80A0
(1020000000.169491) can0 3C1#7B551FBCF52EA92E
(1020000000.170509) can0 FFF#0000000000000000
(1020000000.170510) can0 4E7#00000014036C0000
(1020000000.171531) can0 00E#2054160208097392
(1020000000.171532) can0 153#00000000000C000A
(1020000000.171533) can0 FFF#0000000000000000
(1020000000.171534) can0 662#4C40000040000000
(1020000000.171535) can0 684#4CD47F99415ED01E
(1020000000.172531) can0 636#249C20410D08D000
(1020000000.172532) can0 2D7#100060D800000008
(1020000000.172533) can0 19C#10A02009C2002830
(1020000000.172534) can0 0D0#424E04623B02B700
(1020000000.173551) can0 033#122F111E0E0127D0
(1020000000.173552) can0 274#58F228F4507CADF9
(1020000000.173553) can0 6E0#025A025C025A025B
(1020000000.173554) can0 0C0#6000000000000000
(1020000000.174586) can0 3E4#00D4000084000000
(1020000000.174587) can0 69E#0440047D1FC01542
(1020000000.174588) can0 125#900040DF40A00160
(1020000000.174589) can0 65C#400812A58A600000
(1020000000.175585) can0 577#0000080000000146
(1020000000.176607) can0 354#200E40000001EC80
(1020000000.176609) can0 5E1#893820070A00B880
(1020000000.176610) can0 28B#0000000000000000
(1020000000.176611) can0 0A7#00510DA5412D80A0
(1020000000.177626) can0 407#38945FF000019AA0
(1020000000.180063) can0 0D0#4A4E04623A02B700
(1020000000.181085) can0 033#122F09251E4127D0
(1020000000.181086) can0 00E#2054160208097392
(1020000000.181087) can0 3B9#20047201244BDC42
(1020000000.182106) can0 193#00080803E8080000
(1020000000.182107) can0 107#0000000000000000
(1020000000.182108) can0 FFF#0000000000000000
(1020000000.183106) can0 20E#4E2007A15C3FEFFF
(1020000000.183107) can0 522#DF7FD0007BC0001C
(1020000000.183108) can0 366#805DC8020147CE38
(1020000000.183109) can0 580#00000005BC07FC10
(1020000000.184127) can0 434#026000A2A3B0C5C0
(1020000000.184128) can0 6E0#025C025B025A025B
(1020000000.184129) can0 0BA#06982CC41000068C
(1020000000.184130) can0 125#900040DF40BFE360
(1020000000.184131) can0 041#8022002001000000
(1020000000.185148) can0 21D#0000000000010000
(1020000000.185149) can0 498#840020003C80AE06
(1020000000.185150) can0 464#0002400000901E50
(1020000000.185150) can0 03C#0000040033000000
(1020000000.186148) can0 207#040020402ADEC118
(1020000000.186149) can0 4C9#01F915820D02F60B
(1020000000.186150) can0 2E1#0000000000000004
(1020000000.186150) can0 354#200E40000001DD80
(1020000000.187154) can0 5E1#893820070A00B880
(1020000000.187155) can0 162#2448028440121FC9
(1020000000.187156) can0 0A7#00510DA5412D80A0
(1020000000.187157) can0 2B4#14EA020000005800
(1020000000.188174) can0 1D6#020D828030240500
(1020000000.188175) can0 230#F7000002D4001000
(1020000000.189718) can0 FFF#0000000000000000
(1020000000.190736) can0 153#00000000000C000A
(1020000000.190737) can0 295#0000000000001840
(1020000000.190738) can0 00E#2054160208097398
(1020000000.190739) can0 662#4C40000040000000
(1020000000.191757) can0 19C#149C2009C2002830
(1020000000.191758) can0 0D0#524E04643902B700
(1020000000.191759) can0 033#122701251E8127D0
(1020000000.191760) can0 274#58F22AF2507CADF9
(1020000000.192756) can0 6E0#0261025B025A025B
(1020000000.192757) can0 0C0#6000000000000000
(1020000000.193797) can0 69E#0440047D1FC01542
(1020000000.194817) can0 125#900040DF40BFC560
(1020000000.194818) can0 3C1#7B551FBB75EF692E
(1020000000.195838) can0 354#200E40000001DD80
(1020000000.195839) can0 5E1#893820070A00B480
(1020000000.196881) can0 28B#0000000000000000
(1020000000.196882) can0 0A7#00510FA5312D80A0
(1020000000.196883) can0 03D#0001878000000000
(1020000000.200024) can0 0D0#5A4E04643802B700
(1020000000.201026) can0 033#1226F921AEC127D0
(1020000000.201027) can0 00E#205416020809738C
(1020000000.202027) can0 193#00080803E8080000
(1020000000.202028) can0 107#0000000000000000
(1020000000.202029) can0 FFF#0000000000000000
(1020000000.203019) can0 20E#4E2003A15D3FEFFF
(1020000000.203020) can0 522#DF7FD0007B48001C
(1020000000.203021) can0 366#809DC8020147CE38
(1020000000.203022) can0 580#00000005B487FC10
(1020000000.204034) can0 434#028A80A2C3E0D5E0
(1020000000.204035) can0 6E0#025E025A025B025B
(1020000000.204036) can0 297#1100002000025110
(1020000000.204037) can0 125#900040DF40BFA760
(1020000000.205069) can0 5AF#20C0000000200000
(1020000000.205070) can0 498#840020003B80AE07
(1020000000.205071) can0 32D#00000420AC010020
(1020000000.205072) can0 4FD#114B0A54650E4A08
(1020000000.205073) can0 230#F6000002D4001200
(1020000000.206055) can0 2E1#0000000000000004
(1020000000.206056) can0 354#200E40000001D600
(1020000000.206057) can0 5E1#893800070A00B480
(1020000000.207074) can0 162#2448028440121FC9
(1020000000.207076) can0 0A7#00510E25312D80A0
(1020000000.209796) can0 FFF#0000000000000000
(1020000000.210836) can0 153#00000000000C000A
(1020000000.210838) can0 662#4C40000040000000
(1020000000.210839) can0 00E#205416020809738C
(1020000000.211858) can0 19C#18982009C2002830
(1020000000.211859) can0 0D0#624E04663702B700
(1020000000.211860) can0 033#1226F1236F0127D0
(1020000000.211861) can0 274#58F22CF0507CADF9
(1020000000.211862) can0 6E0#025E025A025B025C
(1020000000.212856) can0 0C0#6000000000000000
(1020000000.213877) can0 69E#0440047D1FC01542
(1020000000.214878) can0 125#900040DF40BF8960
(1020000000.214879) can0 585#0040000000020018
(1020000000.215898) can0 354#200E40000001D600
(1020000000.216920) can0 5E1#893800070A00B080
(1020000000.216921) can0 28B#0000000000000000
(1020000000.216922) can0 0A7#00511225312D80A0
(1020000000.216923) can0 1CA#3FF9FF8000000C38
(1020000000.219502) can0 3C1#7B551FBB35AFE92E
(1020000000.220523) can0 295#0000000000001840
(1020000000.220524) can0 0D0#6A4E04663602B700
(1020000000.220525) can0 00E#2054160208097392
(1020000000.221524) can0 033#1226E9236F4127D0
(1020000000.221525) can0 577#0000080000000146
(1020000000.221526) can0 193#00080803E8080000
(1020000000.222546) can0 107#0000000000000000
(1020000000.222548) can0 FFF#0000000000000000
(1020000000.222549) can0 20E#4E2003A15DBFEFFF
(1020000000.222550) can0 522#DF7FD0007AD0001C
(1020000000.223543) can0 366#809DC8020147CE38
(1020000000.223544) can0 580#00000005AD07FC10
(1020000000.223548) can0 434#02AA20A2E4110600
(1020000000.223549) can0 6E0#0261025A025C025B
(1020000000.224564) can0 0BA#06982CC41000068C
(1020000000.224565) can0 125#900040DF40BF6B60
(1020000000.224566) can0 498#840020003980AE48
(1020000000.224567) can0 230#F5000002D4001400
(1020000000.225605) can0 2E1#0000000000000004
(1020000000.226606) can0 354#200E40000001C700
(1020000000.226608) can0 5E1#893800070A00B080
(1020000000.226609) can0 162#2448028440121FC9
(1020000000.226610) can0 0A7#00511225312D80A0
(1020000000.227626) can0 5B3#0400000000000400
(1020000000.227627) can0 2A3#100002847C803C08
(1020000000.229165) can0 FFF#0000000000000000
(1020000000.230167) can0 2C1#01F46FC7C91E6F80
(1020000000.230169) can0 FFF#0000000000000000
(1020000000.230170) can0 153#00000000000C000A
(1020000000.231186) can0 662#4C40000040000000
(1020000000.231187) can0 00E#2054160208097392
(1020000000.231188) can0 19C#1C942009C2002830
(1020000000.231189) can0 0D0#724E04663402B800
(1020000000.232207) can0 033#1226E1272F8127D0
(1020000000.232209) can0 274#58F22EEE507CADF9
(1020000000.232210) can0 6E0#0260025C025C025C
(1020000000.232211) can0 0C0#6000000000000000
(1020000000.233788) can0 69E#0440047D1FC01542
(1020000000.234808) can0 125#900040DF40BF4D60
(1020000000.235830) can0 354#200E800000022800
(1020000000.236833) can0 5E1#893800070A00B080
(1020000000.236835) can0 28B#0000000000000000
(1020000000.236836) can0 6FC#00000739B2B9F800
(1020000000.236837) can0 0A7#005112A5312D80A0
(1020000000.236837) can0 239#00000069C00039A0
(1020000000.239999) can0 0D0#7A4E04603302B800
(1020000000.241021) can0 033#1236D91EBFC127D0
(1020000000.241022) can0 00E#2054160208097398
(1020000000.241023) can0 0D7#0000020080000000
(1020000000.242020) can0 193#00080803E8080000
(1020000000.242021) can0 107#0000000000000000
(1020000000.242022) can0 FFF#0000000000000000
(1020000000.243040) can0 20E#4E2003A15EBFEFFF
(1020000000.243041) can0 522#DF7FD0007A58001C
(1020000000.243042) can0 366#809DC8020147CE38
(1020000000.243043) can0 580#00000005A587FC10
(1020000000.244064) can0 434#02CAA0A314213630
(1020000000.244065) can0 6E0#025D025E025D025D
(1020000000.244066) can0 498#840020003780AE89
(1020000000.244067) can0 125#900040DF40BF2F60
(1020000000.244068) can0 230#F4000002D4001600
(1020000000.245084) can0 3C1#7B551FBBF430A92E
(1020000000.246104) can0 2E1#0000000000000004
(1020000000.246105) can0 354#200E800000022800
(1020000000.246106) can0 5E1#893800070A00B080
(1020000000.247105) can0 162#2448028440121FC9
(1020000000.247106) can0 0A7#00511525412D80A0
(1020000000.247107) can0 FFF#0000000000000000
(1020000000.247108) can0 497#0000000000000000
(1020000000.249904) can0 FFF#0000000000000000
(1020000000.250919) can0 153#00000000000C000A
(1020000000.250920) can0 00E#2054160208097386
(1020000000.250921) can0 295#0000000000001840
(1020000000.250922) can0 662#4C40000040000000
(1020000000.251896) can0 19C#00B02009C2002840
(1020000000.251897) can0 0D0#024E04604102B900
(1020000000.251913) can0 033#1237511EBC0127D0
(1020000000.251914) can0 274#58F220FC507CADF9
(1020000000.252916) can0 6E0#025E025C025F025F
(1020000000.252917) can0 0C0#6000000000000000
(1020000000.252918) can0 2E2#18080D4040000118
(1020000000.252919) can0 345#050202C23C774081
(1020000000.253970) can0 430#003F448C568011A0
(1020000000.253971) can0 130#0001600000000000
(1020000000.253972) can0 4CB#8000000000000000
(1020000000.253974) can0 32D#00000420AC010020
(1020000000.254991) can0 69E#0440047D1FC01542
(1020000000.254992) can0 125#900040DF40BF1160
(1020000000.254993) can0 280#18E0027000000000
(1020000000.254993) can0 4FD#11470A53610DCA08
(1020000000.255990) can0 26E#0106408289120A04
(1020000000.255991) can0 354#200E800000022080
(1020000000.255992) can0 5E1#893800070A00B880
(1020000000.257012) can0 28B#0000000000000000
(1020000000.257013) can0 0A7#005110A5312D80A0
(1020000000.257014) can0 2D2#0000480000000000
(1020000000.257015) can0 55C#101B000041823000
(1020000000.258010) can0 66C#0080100018000020
(1020000000.259032) can0 FFF#0000000000000000
(1020000000.259033) can0 FFF#0000000000000000
(1020000000.259034) can0 0F4#9A0C010204B10240
(1020000000.260412) can0 00E#2054160208097398
(1020000000.261412) can0 0D0#0A4E04624002B900
(1020000000.261428) can0 033#12274925CC4127D0
(1020000000.262469) can0 193#00080803E8080000
(1020000000.262470) can0 107#0000000000000000
(1020000000.262471) can0 FFF#0000000000000000
(1020000000.262472) can0 20E#4E2003A15DBFEFFF
(1020000000.262473) can0 522#DF7FD00079E0001C
(1020000000.263468) can0 366#805DC8020147CE38
(1020000000.263469) can0 580#00000005A607FC00
(1020000000.263470) can0 434#02EAA0A334515660
(1020000000.263471) can0 6E0#025F025C0261025F
(1020000000.264496) can0 0BA#06982CC41000068C
(1020000000.264497) can0 125#900040DF40BEF360
(1020000000.264498) can0 498#840020003380AF4A
(1020000000.264514) can0 230#F3000002D4001800
(1020000000.265633) can0 2E1#0000000000000004
(1020000000.266656) can0 354#200E800000022080
(1020000000.266657) can0 5E1#893800070A00B880
(1020000000.266658) can0 162#2448028440121FC9
(1020000000.266658) can0 0A7#00511025312D90A0
(1020000000.269414) can0 3C1#7B551FBAB4F1292E
(1020000000.270446) can0 FFF#0000000000000000
(1020000000.270447) can0 4E7#00000014036C0000
(1020000000.270448) can0 153#00000000000C000A
(1020000000.271454) can0 00E#2054160208097380
(1020000000.271455) can0 FFF#0000000000000000
(1020000000.271456) can0 662#4C40000040000000
(1020000000.271472) can0 684#4CD47F19415ED01E
(1020000000.272488) can0 636#249C21010D08E000
(1020000000.272489) can0 2D7#100060D800000008
(1020000000.272490) can0 19C#04AE200982002840
(1020000000.272491) can0 0D0#124E04623C02BC00
(1020000000.273509) can0 033#1227411F0C8127D0
(1020000000.273510) can0 274#58F222FA507CADF5
(1020000000.273511) can0 6E0#025F025E02600261
(1020000000.273512) can0 0C0#6000000000000000
(1020000000.273513) can0 3E4#00D4000084000000
(1020000000.274509) can0 65C#400812A58A500000
(1020000000.274510) can0 577#0000080000000146
(1020000000.274511) can0 69E#0440047D1FC01542
(1020000000.274512) can0 125#900040DF40BED560
(1020000000.275613) can0 354#200E800000021180
(1020000000.276634) can0 5E1#893800070A00BC80
(1020000000.276635) can0 28B#0000000000000000
(1020000000.276636) can0 0A7#00510DA5412D90A0
(1020000000.276637) can0 407#38965FF000019A60
(1020000000.279989) can0 295#0000000000001840
(1020000000.281009) can0 0D0#1A4E04623B02BC00
(1020000000.281011) can0 00E#2054160208097380
(1020000000.281012) can0 033#1227391F0CC127D0
(1020000000.282030) can0 193#00080803E8080000
(1020000000.282031) can0 107#0000000000000000
(1020000000.282032) can0 FFF#0000000000000000
(1020000000.283030) can0 20E#4E1FFFA15E3FD007
(1020000000.283032) can0 522#DF7FD0007968001C
(1020000000.283033) can0 366#805DC8020147CE38
(1020000000.283036) can0 580#000000059E87FC00
(1020000000.284051) can0 434#030A80A364817680
(1020000000.284052) can0 6E0#0261025F02600261
(1020000000.284053) can0 498#840020003180AF8B
(1020000000.284054) can0 464#0002400000901D51
(1020000000.285070) can0 125#900040DF40BEB760
(1020000000.285072) can0 230#F2000002D4001A00
(1020000000.285073) can0 03C#0000040033000000
(1020000000.285074) can0 207#040460482ADED518
(1020000000.286071) can0 4C9#01F915820D03F64B
(1020000000.286072) can0 1D6#028BC08034740590
(1020000000.286073) can0 2E1#0000000000000004
(1020000000.286074) can0 354#200E800000020A00
(1020000000.287071) can0 5E1#8937E0070A00BC80
(1020000000.287072) can0 162#2448028440121FC9
(1020000000.287073) can0 0A7#00510B25412D90A0
(1020000000.287074) can0 2B4#14EA020000005800
(1020000000.289932) can0 FFF#0000000000000000
(1020000000.290951) can0 153#00000000000C000A
(1020000000.290952) can0 00E#205416020809738C
(1020000000.290953) can0 662#4C40000040000000
(1020000000.290954) can0 19C#08AA200982002840
(1020000000.291972) can0 0D0#224E04643902BD00
(1020000000.291973) can0 033#121F3123BD0127D0
(1020000000.291974) can0 274#58F224F8507CADF5
(1020000000.291975) can0 6E0#0263025D02600260
(1020000000.292969) can0 0C0#6000000000000000
(1020000000.294012) can0 69E#0440047D1FC01542
(1020000000.295033) can0 125#900040DF40BE9960
(1020000000.295035) can0 3C1#7B551FBAB431E92E
(1020000000.296032) can0 354#200E800000020A00
(1020000000.296033) can0 5E1#8937E0070A00BC80
(1020000000.297053) can0 28B#0000000000000000
(1020000000.297054) can0 0A7#00510DA5412D90A0
(1020000000.297055) can0 03D#0001878000000000
(1020000000.300014) can0 0D0#2A4E04643802BD00
(1020000000.301034) can0 033#121F2924BD4127D0
(1020000000.301035) can0 00E#205416020809738C
(1020000000.302033) can0 193#00080803E8080000
(1020000000.302034) can0 20E#4E2003A15FBFD007
(1020000000.302035) can0 107#0000000000000000
(1020000000.303053) can0 FFF#0000000000000000
(1020000000.303054) can0 522#DF7FD00078F0001C
(1020000000.303055) can0 366#809DC8020147CE38
(1020000000.303056) can0 580#000000059707FC00
(1020000000.304095) can0 434#032A00A384A1A6B0
(1020000000.304097) can0 6E0#0261025E025E025E
(1020000000.304098) can0 0BA#06982CC41000068C
(1020000000.304099) can0 125#900040DF40BE7B60
(1020000000.304100) can0 51B#280C410128000121
(1020000000.305094) can0 498#840020003180AF4C
(1020000000.305096) can0 32D#00000420AC010020
(1020000000.305097) can0 4FD#11440A545B0D4A08
(1020000000.305097) can0 230#F1000002D4001C00
(1020000000.306115) can0 2E1#0000000000000004
(1020000000.306116) can0 354#200E400000020300
(1020000000.306117) can0 5E1#8937E0070A00BC80
(1020000000.307114) can0 162#2448028440121FC9
(1020000000.307115) can0 0A7#00510DA5412D90A0
(1020000000.309766) can0 FFF#0000000000000000
(1020000000.310803) can0 153#00000000000C000A
(1020000000.310804) can0 295#0000000000001840
(1020000000.310805) can0 00E#2054160208097392
(1020000000.310806) can0 662#4C40000040000000
(1020000000.311802) can0 19C#0CA6200982002840
(1020000000.311803) can0 0D0#324E04643802BC00
(1020000000.311804) can0 033#121F2124BD8127D0
(1020000000.311805) can0 274#58F226F6507CADF5
(1020000000.312822) can0 6E0#02610261025F025F
(1020000000.312823) can0 0C0#6000000000000000
(1020000000.313821) can0 69E#0440047D1FC01542
(1020000000.314843) can0 125#900040DF40BE5D60
(1020000000.314844) can0 585#0040000000020018
(1020000000.315864) can0 354#200E40000001F400
(1020000000.315865) can0 5E1#8937E0070A00B480
(1020000000.316885) can0 28B#0000000000000000
(1020000000.316887) can0 0A7#00511225312D90A0
(1020000000.316888) can0 1CA#3FF9FF8000000C38
(1020000000.319451) can0 3C1#7B551FBB3332692E
(1020000000.320467) can0 0D0#3A4E04663702BC00
(1020000000.320468) can0 00E#2054160208097392
(1020000000.321510) can0 033#12271920ADC127D0
(1020000000.321511) can0 577#0000080000000146
(1020000000.321512) can0 193#00080803E8080000
(1020000000.322511) can0 107#0000000000000000
(1020000000.322512) can0 FFF#0000000000000000
(1020000000.322513) can0 20E#4E2003A15FBFCFFF
(1020000000.322514) can0 522#DF7FD0007878001C
(1020000000.323531) can0 366#805DC8020147CE38
(1020000000.323532) can0 580#000000058F87FC00
(1020000000.323533) can0 434#034AA0A3B4C1C6D0
(1020000000.323533) can0 6E0#0263026102610260
(1020000000.324529) can0 498#840020003080AF4D
(1020000000.324530) can0 125#900040DF40BE3F60
(1020000000.324531) can0 230#F0000002D4001E00
(1020000000.325612) can0 2E1#0000000000000004
(1020000000.326637) can0 354#200E40000001F400
(1020000000.326638) can0 5E1#8937E0070A00B080
(1020000000.326639) can0 162#2448028440121FC9
(1020000000.326640) can0 0A7#00511525412D90A0
(1020000000.327637) can0 5B3#0400000000000400
(1020000000.327639) can0 2A3#100002847C803C08
(1020000000.329235) can0 FFF#0000000000000000
(1020000000.330246) can0 FFF#0000000000000000
(1020000000.330247) can0 153#00000000000C000A
(1020000000.330248) can0 662#4C40000040000000
(1020000000.331279) can0 00E#2054160208097386
(1020000000.331280) can0 19C#10A02009C2002840
(1020000000.331281) can0 0D0#424E04663602BC00
(1020000000.331282) can0 033#122711272E0127D0
(1020000000.332299) can0 274#58F228F4507CADF9
(1020000000.332300) can0 6E0#0261025E02610260
(1020000000.332301) can0 0C0#6000000000000000
(1020000000.333781) can0 69E#0440047D1FC01542
(1020000000.334798) can0 125#900040DF40A00160
(1020000000.334799) can0 2C1#01F3EFC7C61E6D96
(1020000000.335797) can0 354#200E80000001E480
(1020000000.336819) can0 5E1#8937E0070A00B080
(1020000000.336820) can0 28B#0000000000000000
(1020000000.336821) can0 6FC#0000073912BA0000
(1020000000.336822) can0 0A7#00511525312D90A0
(1020000000.337839) can0 239#00000069A0003980
(1020000000.340009) can0 295#0000000000001840
(1020000000.341007) can0 0D0#4A4F04603502BC00
(1020000000.341008) can0 00E#2054160208097386
(1020000000.341009) can0 033#123709272E4127D0
(1020000000.341010) can0 0D7#0000020080000000
(1020000000.342031) can0 193#00080803E8080000
(1020000000.342032) can0 107#0000000000000000
(1020000000.342033) can0 FFF#0000000000000000
(1020000000.343048) can0 20E#4E2003A1603FEFEF
(1020000000.343049) can0 522#DF7FD0007F80001C
(1020000000.343050) can0 366#805DC8020147CE38
(1020000000.343050) can0 580#000000060807FBF0
(1020000000.344048) can0 434#036AA0A3D4F1F6F0
(1020000000.344049) can0 6E0#0261026002620261
(1020000000.344050) can0 0BA#06982CC41000068C
(1020000000.344051) can0 125#900040DF40BFE360
(1020000000.345084) can0 498#840020002D80AFCE
(1020000000.345086) can0 230#FF000002D4000000
(1020000000.345087) can0 3C1#7B551FBB7233292E
(1020000000.346085) can0 2E1#0000000000000004
(1020000000.346086) can0 354#200E80000001E480
(1020000000.346087) can0 5E1#8937E0070A00B080
(1020000000.347088) can0 162#2448028440121FC9
(1020000000.347090) can0 0A7#005116A5412D90A0
(1020000000.347093) can0 497#0000000000000000
(1020000000.349713) can0 FFF#0000000000000000
(1020000000.350735) can0 153#00000000000C000A
(1020000000.350736) can0 662#4C60000040000000
(1020000000.350737) can0 00E#2054160208097392
(1020000000.350738) can0 19C#149E200982002840
(1020000000.351735) can0 0D0#524F04603202BE00
(1020000000.351736) can0 033#1237011DBE8127D0
(1020000000.351737) can0 274#58F22AF2507CADF9
(1020000000.351738) can0 6E0#0260026002630261
(1020000000.352755) can0 0C0#6000000000000000
(1020000000.352756) can0 2E2#18080D4040000118
(1020000000.352757) can0 345#050202C23C774081
(1020000000.352758) can0 430#003F448C568011A0
(1020000000.353775) can0 130#0001600000000000
(1020000000.353776) can0 30A#402D7001D4043200
(1020000000.353777) can0 1C4#017202002841BA02
(1020000000.353778) can0 2A4#36DC001C040898D0
(1020000000.354776) can0 32D#00000420AC010020
(1020000000.354777) can0 69E#0440047D1FC01542
(1020000000.354778) can0 125#900040DF40BFC560
(1020000000.354779) can0 4FD#11480A54610DCA08
(1020000000.355794) can0 354#200EC0000001CD80
(1020000000.356796) can0 5E1#8937E0070A00B880
(1020000000.356797) can0 28B#0000000000000000
(1020000000.356798) can0 0A7#005112A5312D90A0
(1020000000.356799) can0 2D2#0000500000000000
(1020000000.356800) can0 26E#0106408289120A04
(1020000000.357815) can0 66C#0080100018000020
(1020000000.358816) can0 FFF#0000000000000000
(1020000000.358817) can0 FFF#0000000000000000
(1020000000.359836) can0 0F4#9A0C010204B10240
(1020000000.360837) can0 0D0#5A4F04603102BE00
(1020000000.360838) can0 033#1236F923BEC127D0
(1020000000.360839) can0 00E#205416020809738C
(1020000000.361857) can0 193#00080803E8080000
(1020000000.361858) can0 107#0000000000000000
(1020000000.362900) can0 FFF#0000000000000000
(1020000000.362901) can0 20E#4E2003A15F3FEFEF
(1020000000.362902) can0 522#DF7FD0007F08001C
(1020000000.362903) can0 366#805DC8020147CE38
(1020000000.363878) can0 580#000000060087FBF0
(1020000000.363879) can0 434#038000A405121720
(1020000000.363880) can0 6E0#0264025D02630262
(1020000000.363881) can0 498#840020002A80B04F
(1020000000.363882) can0 1AA#90BEBD44A163E640
(1020000000.364899) can0 125#900040DF40BFA760
(1020000000.364900) can0 230#FE000002D4000200
(1020000000.365919) can0 2E1#0000000000000004
(1020000000.365920) can0 354#200EC0000001C600
(1020000000.366919) can0 5E1#8937C0070A00B880
(1020000000.366920) can0 162#2448028440121FC9
(1020000000.366921) can0 0A7#00510E25312D90A0
(1020000000.369418) can0 3C1#7B551FBAB273A92E
(1020000000.370418) can0 FFF#0000000000000000
(1020000000.370419) can0 4E7#00000014036C0000
(1020000000.370420) can0 153#00000000000C000A
(1020000000.371461) can0 00E#205416020809738C
(1020000000.371462) can0 FFF#0000000000000000
(1020000000.371463) can0 295#0000000000001840
(1020000000.371464) can0 662#4C60000040000000
(1020000000.371465) can0 684#4CD47E59415ED01E
(1020000000.372461) can0 636#249C21C10C88F000
(1020000000.372462) can0 2D7#100060D800000008
(1020000000.372463) can0 19C#189A200982002840
(1020000000.372464) can0 0D0#624F04622E02C000
(1020000000.373481) can0 033#1216F123BF0127D0
(1020000000.373483) can0 274#58F22CF0507CADF5
(1020000000.373484) can0 6E0#0264026002650261
(1020000000.373485) can0 0C0#6000000000000000
(1020000000.374502) can0 3E4#00D4000084000000
(1020000000.374503) can0 69E#0440047D1FC01542
(1020000000.374504) can0 125#900040DF40BF8960
(1020000000.374507) can0 65C#400812A58A400000
(1020000000.375502) can0 577#0000080000000146
(1020000000.376524) can0 354#200EC0000001C600
(1020000000.376525) can0 5E1#8937C0070A00BC80
(1020000000.376526) can0 28B#0000000000000000
(1020000000.376527) can0 0A7#00510B25312D90A0
(1020000000.377541) can0 407#38965FF000019A60
(1020000000.379978) can0 0D0#6A4F04622D02C000
(1020000000.380979) can0 033#1216E921AF4127D0
(1020000000.380980) can0 00E#205416020809738C
(1020000000.382001) can0 FFF#0000000000000000
(1020000000.382002) can0 193#00080803E8080000
(1020000000.382003) can0 107#0000000000000000
(1020000000.383003) can0 FFF#0000000000000000
(1020000000.383004) can0 20E#4E1FFFA1603FAFFF
(1020000000.383005) can0 522#DF7FD0007E90001C
(1020000000.383006) can0 366#805DC8020147CE38
(1020000000.384044) can0 580#00000005F907FBF0
(1020000000.384045) can0 434#03A2A0A425424750
(1020000000.384046) can0 6E0#0262026002650261
(1020000000.384047) can0 0BA#06982CC41000068C
(1020000000.384048) can0 498#840020003980B040
(1020000000.385063) can0 464#0002400000901C52
(1020000000.385064) can0 125#900040DF40BF6B60
(1020000000.385065) can0 03C#0000040033000000
(1020000000.385066) can0 207#040460482ADED518
(1020000000.386063) can0 4C9#01F915820D02F64B
(1020000000.386064) can0 1D6#020F828030240580
(1020000000.386065) can0 2E1#0000000000000004
(1020000000.386066) can0 354#200E80000001BF00
(1020000000.387083) can0 5E1#8937C0070A00C080
(1020000000.387084) can0 162#2448028440121FC9
(1020000000.387085) can0 0A7#005109A5312D90A0
(1020000000.387086) can0 2B4#14EA020000005800
(1020000000.388082) can0 230#FD000002D4000400
(1020000000.389832) can0 FFF#0000000000000000
(1020000000.390854) can0 153#00000000000C000A
(1020000000.390855) can0 662#4C60000040000000
(1020000000.390856) can0 00E#20541602080973AC
(1020000000.390857) can0 19C#1C96200982002840
(1020000000.391873) can0 0D0#724F04642C02C000
(1020000000.391874) can0 033#122EE1230F8127D0
(1020000000.391875) can0 274#58F22EEE507CADF3
(1020000000.391876) can0 6E0#0262026002620261
(1020000000.392873) can0 0C0#6000000000000000
(1020000000.393894) can0 69E#0440047D1FC01542
(1020000000.394914) can0 125#900040DF40BF4D60
(1020000000.394915) can0 3C1#7B551FBAF174692E
(1020000000.395915) can0 354#200E800000022800
(1020000000.395916) can0 5E1#8937C0070A00BC80
(1020000000.396935) can0 28B#0000000000000000
(1020000000.396937) can0 0A7#00510F25412D90A0
(1020000000.396938) can0 03D#0001878000000000
(1020000000.399959) can0 295#0000000000001840
(1020000000.400975) can0 0D0#7A4F04642B02C000
(1020000000.400976) can0 00E#205416020809739E
(1020000000.400977) can0 033#122ED9230FC127D0
(1020000000.401998) can0 193#00080803E8080000
(1020000000.401999) can0 107#0000000000000000
(1020000000.402000) can0 FFF#0000000000000000
(1020000000.403019) can0 20E#4E2003A1603F9007
(1020000000.403020) can0 522#DF7FD0007E18001C
(1020000000.403021) can0 366#805DC8020147CE38
(1020000000.403022) can0 580#00000005F187FBF0
(1020000000.404018) can0 434#03CAA0A445626770
(1020000000.404019) can0 6E0#0262026002610261
(1020000000.404020) can0 498#840020003A80AFC1
(1020000000.404021) can0 125#900040DF40BF2F60
(1020000000.405038) can0 32D#80000420AC010020
(1020000000.405040) can0 4FD#11460A535F0DCA08
(1020000000.405041) can0 230#FC000002D4000600
(1020000000.406060) can0 2E1#0000000000000004
(1020000000.406061) can0 354#200E800000022800
(1020000000.406064) can0 5E1#8937C0070A00BC80
(1020000000.407081) can0 162#2448028440121FC9
(1020000000.407082) can0 0A7#00511225412D90A0
(1020000000.407083) can0 55C#101B000041823000
(1020000000.409954) can0 FFF#0000000000000000
(1020000000.410976) can0 153#00000000000C000A
(1020000000.410977) can0 00E#2054160208097386
(1020000000.410978) can0 662#4C60000040000000
(1020000000.410979) can0 19C#00B2200982002840
(1020000000.411997) can0 0D0#024F04643C02BE00
(1020000000.411998) can0 033#122F51240C0127D0
(1020000000.411999) can0 274#58F220FC507CADF3
(1020000000.412000) can0 6E0#0262026002630261
(1020000000.412997) can0 0C0#6000000000000000
(1020000000.414019) can0 69E#0440047D1FC01542
(1020000000.414020) can0 125#900040DF40BF1160
(1020000000.415015) can0 585#0040000000020018
(1020000000.416036) can0 354#200E800000022080
(1020000000.416038) can0 5E1#8937C0070A00B480
(1020000000.417057) can0 28B#0000000000000000
(1020000000.417058) can0 0A7#005113A5412D90A0
(1020000000.417059) can0 1CA#3FF9FF8000000C38
(1020000000.419411) can0 3C1#7B551FBAF0F4E92E
(1020000000.420453) can0 0D0#0A4F04663B02BE00
(1020000000.420454) can0 033#1217491DBC4127D0
(1020000000.420455) can0 00E#2054160208097386
(1020000000.421453) can0 577#0000080000000146
(1020000000.421454) can0 193#00080803E8080000
(1020000000.422475) can0 107#0000000000000000
(1020000000.422476) can0 FFF#0000000000000000
(1020000000.422477) can0 20E#4E2003A1603FAFFF
(1020000000.422478) can0 522#DF7FD0007DA0001C
(1020000000.423474) can0 366#805DC8020147CE38
(1020000000.423475) can0 580#00000005EA07FBF0
(1020000000.423476) can0 434#03E220A475929790
(1020000000.423477) can0 6E0#0265025F02660263
(1020000000.424493) can0 0BA#06982CC41000068C
(1020000000.424494) can0 2B7#0020284000008040
(1020000000.424495) can0 498#840020003680B082
(1020000000.424496) can0 125#900040DF40BEF360
(1020000000.425515) can0 230#FB000002D4000800
(1020000000.425516) can0 5B3#0400000000000400
(1020000000.426537) can0 2E1#0000000000000004
(1020000000.426538) can0 354#200E800000021180
(1020000000.426539) can0 5E1#8937C0070A00B480
(1020000000.426540) can0 162#2448028440121FC9
(1020000000.427535) can0 0A7#00511425312D90A0
(1020000000.427536) can0 2A3#100002847A803C08
(1020000000.429179) can0 FFF#0000000000000000
(1020000000.430202) can0 FFF#0000000000000000
(1020000000.430204) can0 153#00000000000C000A
(1020000000.431203) can0 295#0000000000001840
(1020000000.431204) can0 00E#2054160208097398
(1020000000.431205) can0 662#4C60000040000000
(1020000000.431206) can0 19C#04AE200982002840
(1020000000.431207) can0 0D0#124F04663702C100
(1020000000.432223) can0 033#1217411DBC8127D0
(1020000000.432224) can0 274#58F222FA507CADF5
(1020000000.432225) can0 6E0#0261025E02660263
(1020000000.432225) can0 0C0#6000000000000000
(1020000000.433760) can0 69E#0440047D1FC01542
(1020000000.434785) can0 125#900040DF40BED560
(1020000000.435824) can0 354#200E800000021180
(1020000000.435825) can0 5E1#8937C0070A00B480
(1020000000.436826) can0 28B#0000000000000000
(1020000000.436827) can0 6FC#00000739D2BA0000
(1020000000.436828) can0 0A7#00511125312D90A0
(1020000000.436829) can0 239#0000006960003980
(1020000000.439409) can0 2C1#01F38FC7C39E69AA
(1020000000.440429) can0 0D0#1A4F04663602C100
(1020000000.440430) can0 033#121739267CC127D0
(1020000000.441429) can0 00E#20541602080973A4
(1020000000.441430) can0 0D7#0000020080000000
(1020000000.441434) can0 193#00080803E8080000
(1020000000.442451) can0 107#0000000000000000
(1020000000.442452) can0 FFF#0000000000000000
(1020000000.442453) can0 20E#4E2003A160BFEFE7
(1020000000.442454) can0 522#DF7FD0007D28001C
(1020000000.443469) can0 366#805DC8020147CE38
(1020000000.443470) can0 580#00000005E287FBF0
(1020000000.443471) can0 434#040A20A4A5B2C7C0
(1020000000.443472) can0 6E0#0263026002660265
(1020000000.444493) can0 498#840020003380B103
(1020000000.444494) can0 125#900040DF40BEB760
(1020000000.444495) can0 230#FA000002D4000A00
(1020000000.444496) can0 3C1#7B551FBBEF35A92E
(1020000000.445577) can0 2E1#0000000000000004
(1020000000.446596) can0 354#200EC00000020200
(1020000000.446597) can0 5E1#8937C0070A00B480
(1020000000.446598) can0 162#2448028440121FC9
(1020000000.446599) can0 0A7#00511225312D90A0
(1020000000.447616) can0 497#0000000000000000
(1020000000.449945) can0 FFF#0000000000000000
(1020000000.450971) can0 4CB#8000000000000000
(1020000000.450972) can0 00E#20541602080973A4
(1020000000.450973) can0 153#00000000000C000A
(1020000000.450974) can0 662#4C60000040000000
(1020000000.451992) can0 19C#08AA200982002850
(1020000000.451993) can0 0D0#224F04603302C300
(1020000000.451994) can0 033#122F311E0D0127D0
(1020000000.451994) can0 274#58F224F8507CADF5
(1020000000.453013) can0 6E0#0269026302650264
(1020000000.453014) can0 0C0#6000000000000000
(1020000000.453015) can0 2E2#18080D4040000118
(1020000000.453016) can0 345#050202C23C774081
(1020000000.454012) can0 430#003F448C568011A0
(1020000000.454013) can0 130#0001600000000000
(1020000000.454014) can0 280#18E0027000000000
(1020000000.454015) can0 32D#80000420AC010020
(1020000000.454016) can0 69E#0440047E1FC01542
(1020000000.455031) can0 125#900040DF40BE9960
(1020000000.455032) can0 4FD#11410A54570CCA08
(1020000000.456052) can0 354#200EC00000020200
(1020000000.456053) can0 5E1#8937C0070A00B880
(1020000000.457053) can0 28B#0000000000000000
(1020000000.457054) can0 0A7#005111A5312D90A0
(1020000000.457055) can0 2D2#0000080000000000
(1020000000.457056) can0 66C#0080100020000020
(1020000000.458072) can0 26E#0106408289120A04
(1020000000.459093) can0 FFF#0000000000000000
(1020000000.459095) can0 FFF#0000000000000000
(1020000000.460093) can0 0F4#9A0C010204B10240
(1020000000.460094) can0 295#0000000000001840
(1020000000.461114) can0 0D0#2A4F04603202C300
(1020000000.461115) can0 00E#2054160208097392
(1020000000.461116) can0 033#122F291E0D4127D0
(1020000000.462115) can0 193#00080803E8080000
(1020000000.462116) can0 107#0000000000000000
(1020000000.462117) can0 FFF#0000000000000000
(1020000000.463136) can0 20E#4E2007A161BFCFE7
(1020000000.463137) can0 522#DF7FD0007CB0001C
(1020000000.463138) can0 366#809DC8020147CE38
(1020000000.463139) can0 580#00000005E307FBE0
(1020000000.464135) can0 434#0422A0A4C5E2D7F0
(1020000000.464137) can0 6E0#0264026302650264
(1020000000.464138) can0 0BA#06982CC41000068C
(1020000000.464139) can0 498#840020003380B0C4
(1020000000.464140) can0 006#0800006400000000
(1020000000.465154) can0 125#900040DF40BE7B60
(1020000000.465155) can0 230#F9000002D4000C00
(1020000000.466177) can0 2E1#0000000000000004
(1020000000.466178) can0 354#200EC0000001F300
(1020000000.466179) can0 5E1#8937C0070A00B880
(1020000000.467176) can0 162#2448028440121FC9
(1020000000.467178) can0 0A7#00510F25412DA0A0
(1020000000.467179) can0 FFF#0000000000000000
(1020000000.469387) can0 3C1#7B551FBCADF6292E
(1020000000.470380) can0 FFF#0000000000000000
(1020000000.470381) can0 4E7#00000014036C0000
(1020000000.470382) can0 00E#2054160208097398
(1020000000.471405) can0 153#00000000000C000A
(1020000000.471406) can0 FFF#0000000000000000
(1020000000.471407) can0 662#4C60000040000000
(1020000000.471408) can0 684#4CD47F59415ED01E
(1020000000.472371) can0 636#249C22810C090000
(1020000000.472372) can0 2D7#100060D800000008
(1020000000.472373) can0 19C#0CA6200982002850
(1020000000.472374) can0 0D0#324F04623202C200
(1020000000.473425) can0 033#121F21246D8127D0
(1020000000.473427) can0 274#58F226F6507CADF5
(1020000000.473428) can0 6E0#0262026202660264
(1020000000.473429) can0 0C0#6000000000000000
(1020000000.474424) can0 3E4#00D4000084000000
(1020000000.474425) can0 65C#400812A58A100000
(1020000000.474426) can0 69E#0440047D1FC01542
(1020000000.474427) can0 125#900040DF40BE5D60
(1020000000.475445) can0 577#0000080000000146
(1020000000.476467) can0 354#200EC0000001E400
(1020000000.476468) can0 5E1#8937C0070A00BC80
(1020000000.476469) can0 28B#0000000000000000
(1020000000.476470) can0 0A7#00510FA5412DA0A0
(1020000000.477437) can0 407#38965FF000019A60
(1020000000.477438) can0 075#0F32000FAE1EE000
(1020000000.480301) can0 0D0#3A4F04623102C200
(1020000000.481282) can0 00E#2054160208097398
(1020000000.481284) can0 033#121F19215DC127D0
(1020000000.482284) can0 107#0000000000000000
(1020000000.482285) can0 FFF#0000000000000000
(1020000000.482286) can0 193#00080803E8080000
(1020000000.482287) can0 20E#4E2007A160BFCFFF
(1020000000.483304) can0 522#DF7FD0007C38001C
(1020000000.483305) can0 366#805DC8020147CE38
(1020000000.483306) can0 580#00000005DB87FBE0
(1020000000.483307) can0 434#0442A0A4E6030800
(1020000000.484304) can0 6E0#0262026002680265
(1020000000.484305) can0 498#840020003180B105
(1020000000.484306) can0 464#0002400000901B53
(1020000000.484307) can0 125#900040DF40BE3F60
(1020000000.485344) can0 230#F8000002D4000E00
(1020000000.485345) can0 03C#0000040034000000
(1020000000.485346) can0 207#040460482ADED518
(1020000000.485347) can0 4C9#01F915820D02F64B
(1020000000.486384) can0 1D6#020B808030240580
(1020000000.486385) can0 2E1#0000000000000004
(1020000000.486386) can0 354#200EC0000001E400
(1020000000.486387) can0 5E1#8937A0070A00BC80
(1020000000.486388) can0 162#2448028440121FC9
(1020000000.487364) can0 0A7#00510DA5312DA0A0
(1020000000.487366) can0 2B4#14EA020000005800
(1020000000.487367) can0 03A#00000000001D0800
(1020000000.489754) can0 FFF#0000000000000000
(1020000000.490776) can0 153#00000000000C000A
(1020000000.490777) can0 295#0000000000001840
(1020000000.490778) can0 00E#2054160208097398
(1020000000.490779) can0 662#4C60000040000000
(1020000000.491774) can0 19C#10A2200982002850
(1020000000.491776) can0 0D0#424F04622F02C300
(1020000000.491777) can0 033#121F11215E0127D0
(1020000000.491778) can0 274#58F228F4507CADF3
(1020000000.492818) can0 6E0#0263026202680266
(1020000000.492819) can0 0C0#6000000000000000
(1020000000.493817) can0 69E#0440047D1FC01542
(1020000000.494838) can0 125#900040DF40A00160
(1020000000.494840) can0 3C1#7B551FBAAF36E92E
(1020000000.495859) can0 354#200E80000001E480
(1020000000.496863) can0 5E1#8937A0070A00B880
(1020000000.496864) can0 28B#0000000000000000
(1020000000.496865) can0 0A7#00510E25312DA0A0
(1020000000.496866) can0 03D#0001870000000000
(1020000000.496869) can0 4EE#A0000D08F04C4008
(1020000000.499958) can0 0D0#4A4F04642E02C300
(1020000000.500982) can0 033#121F09215E4127D0
(1020000000.500983) can0 00E#205416020809739E
(1020000000.502004) can0 193#00080803E8080000
(1020000000.502005) can0 107#0000000000000000
(1020000000.502006) can0 FFF#0000000000000000
(1020000000.503004) can0 20E#4E2003A1603FF00F
(1020000000.503005) can0 522#DF7FD0007BC0001C
(1020000000.503006) can0 366#801DC8020147CE38
(1020000000.503007) can0 580#00000005D407FBE0
(1020000000.504003) can0 434#046800A516333830
(1020000000.504004) can0 6E0#0265026102660266
(1020000000.504005) can0 0BA#06982CC41000068C
(1020000000.504006) can0 125#900040DF40BFE360
(1020000000.505047) can0 51B#0802874D8AD00001
(1020000000.505048) can0 498#840020002F80B146
(1020000000.505049) can0 32D#80000420AC010020
(1020000000.505050) can0 4FD#11450A535D0D4A08
(1020000000.505050) can0 230#F7000002D4001000
(1020000000.506045) can0 2E1#0000000000000004
(1020000000.506046) can0 354#200E80000001D580
(1020000000.506047) can0 5E1#8937A0070A00B880
(1020000000.507066) can0 162#2448027440121FC9
(1020000000.507068) can0 0A7#00510FA5312DA0A0
(1020000000.507069) can0 69D#808DCFB04FC1FCB1
(1020000000.509692) can0 FFF#0000000000000000
(1020000000.510712) can0 153#00000000000C000A
(1020000000.510713) can0 662#4C60000040000000
(1020000000.510714) can0 00E#2054160208097398
(1020000000.510715) can0 19C#149E200982002850
(1020000000.511712) can0 0D0#524F04642C02C400
(1020000000.511713) can0 033#121F01246E8127D0
(1020000000.511714) can0 274#58F22AF2507CADF3
(1020000000.511715) can0 6E0#0268026302660265
(1020000000.512731) can0 0C0#6000000000000000
(1020000000.513752) can0 69E#0440047D1FC01542
(1020000000.514752) can0 585#0040000000020018
(1020000000.514753) can0 125#900040DF40BFC560
(1020000000.515772) can0 354#200E80000001D580
(1020000000.516791) can0 5E1#8937A0070A00B480
(1020000000.516792) can0 28B#0000000000000000
(1020000000.516793) can0 0A7#00510F25312DA0A0
(1020000000.516794) can0 1CA#3FF9FF8000000C38
(1020000000.516795) can0 5E8#000002040039B000
(1020000000.519379) can0 3C1#7B551FBBADB7692E
(1020000000.520395) can0 295#0000000000001840
(1020000000.520397) can0 0D0#5A4F04662B02C400
(1020000000.521397) can0 00E#205416020809739E
(1020000000.521398) can0 033#1216F9246EC127D0
(1020000000.521399) can0 577#0000080000000146
(1020000000.522421) can0 193#00080803E8080000
(1020000000.522422) can0 20E#4E2003A1623FEFFF
(1020000000.522423) can0 522#DF7FD0007B48001C
(1020000000.522424) can0 107#0000000000000000
(1020000000.523418) can0 FFF#0000000000000000
(1020000000.523419) can0 366#809DC8020147CE38
(1020000000.523420) can0 580#00000005CC87FBE0
(1020000000.523421) can0 434#000000A546536860
(1020000000.524440) can0 6E0#0269026502660264
(1020000000.524441) can0 498#840020002F80B107
(1020000000.524442) can0 125#900040DF40BFA760
(1020000000.524443) can0 230#F6000002D4001200
(1020000000.525585) can0 2E1#0000000000000004
(1020000000.526584) can0 354#200E80000001CE00
(1020000000.526585) can0 5E1#8937A0070A00B080
(1020000000.526586) can0 162#2448027440121FC9
(1020000000.526587) can0 0A7#00511125312DA0A0
(1020000000.527605) can0 5B3#0400000000000400
(1020000000.527606) can0 2A3#100002847A803C08
(1020000000.529083) can0 FFF#0000000000000000
(1020000000.530103) can0 FFF#0000000000000000
(1020000000.530104) can0 153#00000000000C000A
(1020000000.531105) can0 662#4C60000040000000
(1020000000.531106) can0 00E#205416020809739E
(1020000000.531107) can0 19C#189A200982002850
(1020000000.531108) can0 0D0#624F04662B02C300
(1020000000.532124) can0 033#1216F11D6F0127D0
(1020000000.532126) can0 274#58F22CF0507CADF5
(1020000000.532127) can0 6E0#0267026502680266
(1020000000.532128) can0 0C0#6000000000000000
(1020000000.533747) can0 69E#0440047D1FC01542
(1020000000.534749) can0 125#900040DF40BF8960
(1020000000.535768) can0 354#200E80000001CE00
(1020000000.536770) can0 5E1#8937A0070A00B080
(1020000000.536771) can0 28B#0000000000000000
(1020000000.536772) can0 6FC#0000073A52BA0800
(1020000000.536773) can0 0A7#00511025412DA0A0
(1020000000.537790) can0 239#0000006940003980
(1020000000.539981) can0 0D0#6A5104662A02C300
(1020000000.540999) can0 033#1216E9236F4127D0
(1020000000.541000) can0 00E#20541602080973A4
(1020000000.541001) can0 0D7#0000020080000000
(1020000000.542019) can0 193#00080803E8080000
(1020000000.542020) can0 107#0000000000000000
(1020000000.542021) can0 FFF#0000000000000000
(1020000000.543020) can0 20E#4E2007A1633FEFEF
(1020000000.543021) can0 522#DF7FD0007AD0001C
(1020000000.543022) can0 366#809DC8020147CE38
(1020000000.543023) can0 580#00000005C507FBE0
(1020000000.544061) can0 434#002000A556837890
(1020000000.544063) can0 6E0#0268026202690266
(1020000000.544064) can0 0BA#06982CC41000068C
(1020000000.544065) can0 125#900040DF40BF6B60
(1020000000.544066) can0 498#840020002C80B188
(1020000000.545060) can0 230#F5000002D4001400
(1020000000.545061) can0 3C1#7B551FBCABF8292E
(1020000000.545062) can0 2C1#01F40FC7C81E39C0
(1020000000.546082) can0 2E1#0000000000000004
(1020000000.546083) can0 354#200EC0000001B700
(1020000000.546084) can0 5E1#8937A0070A00AC80
(1020000000.547079) can0 162#2448027440121FC9
(1020000000.547080) can0 0A7#00510DA5312DA0A0
(1020000000.547081) can0 497#0000000000000000
(1020000000.549832) can0 FFF#0000000000000000
(1020000000.550853) can0 153#00000000000C000A
(1020000000.550854) can0 295#0000000000001840
(1020000000.550855) can0 00E#20541602080973AC
(1020000000.550856) can0 662#4C80000040000000
(1020000000.551873) can0 19C#1C96200982002850
(1020000000.551874) can0 0D0#725104602702C500
(1020000000.551875) can0 033#1206E1236F8127D0
(1020000000.551876) can0 274#58F22EEE507CADF5
(1020000000.552870) can0 6E0#026A0264026A0267
(1020000000.552871) can0 0C0#6000000000000000
(1020000000.552872) can0 2E2#18080D4040000118
(1020000000.552873) can0 345#050202C23C774081
(1020000000.553894) can0 430#003F448C568011A0
(1020000000.553895) can0 130#0001600000000000
(1020000000.553896) can0 32D#80000420AC010020
(1020000000.553897) can0 4FD#11490A53610E4A08
(1020000000.553898) can0 69E#0440047D1FC01542
(1020000000.554891) can0 125#900040DF40BF4D60
(1020000000.555913) can0 354#200EC00000022000
(1020000000.555914) can0 5E1#8937A0070A00AC80
(1020000000.556914) can0 28B#0000000000000000
(1020000000.556915) can0 0A7#00510CA5312DA0A0
(1020000000.556916) can0 2D2#0000100000000000
(1020000000.556916) can0 26E#0106408289120A04
(1020000000.557934) can0 66C#0080100020000020
(1020000000.557936) can0 55C#101B000041823000
(1020000000.557937) can0 618#FB7DBEFFF777BFDD
(1020000000.559078) can0 FFF#0000000000000000
(1020000000.560101) can0 FFF#0000000000000000
(1020000000.560102) can0 0F4#9A0C010204B10240
(1020000000.560103) can0 0D0#7A5104602602C500
(1020000000.561102) can0 033#1206D91DBFC127D0
(1020000000.561103) can0 00E#20541602080973C4
(1020000000.562143) can0 193#00080803E8080000
(1020000000.562144) can0 107#0000000000000000
(1020000000.562145) can0 FFF#0000000000000000
(1020000000.562146) can0 20E#4E2007A163BFEFF7
(1020000000.563142) can0 522#DF7FD0007A58001C
(1020000000.563143) can0 366#809DC8020147CE38
(1020000000.563144) can0 580#00000005C587FBD0
(1020000000.563145) can0 434#005680A586B3A8A0
(1020000000.564163) can0 6E0#026A026202690267
(1020000000.564164) can0 498#840020002A80B1C9
(1020000000.564165) can0 576#7FF800003FFC1FC0
(1020000000.564166) can0 125#900040DF40BF2F60
(1020000000.565161) can0 230#F4000002D4001600
(1020000000.566184) can0 2E1#0000000000000004
(1020000000.566185) can0 354#200EC00000022000
(1020000000.566186) can0 5E1#8937A0070A00A880
(1020000000.567182) can0 162#2448027440121FC9
(1020000000.567183) can0 0A7#00510A25312DA0A0
(1020000000.569331) can0 3C1#7B551FBBEC38A92E
(1020000000.570335) can0 FFF#0000000000000000
(1020000000.570336) can0 4E7#00000014036C0000
(1020000000.570337) can0 153#00000000000C000A
(1020000000.571350) can0 00E#20541602080973CA
(1020000000.571351) can0 FFF#0000000000000000
(1020000000.571352) can0 662#4C80000040000000
(1020000000.571353) can0 684#4CD47F19415ED01E
(1020000000.572371) can0 636#249C23010C091000
(1020000000.572372) can0 2D7#100060D800000008
(1020000000.572373) can0 19C#00B2200982002850
(1020000000.572374) can0 0D0#025104603402C600
(1020000000.573370) can0 033#12075121AC0127D0
(1020000000.573371) can0 274#58F220FC507CADF3
(1020000000.573372) can0 6E0#0266026302690268
(1020000000.573373) can0 0C0#6000000000000000
(1020000000.574412) can0 3E4#00D4000084000000
(1020000000.574413) can0 65C#400812A589C00000
(1020000000.574414) can0 69E#0440047D1FC01542
(1020000000.574415) can0 125#900040DF40BF1160
(1020000000.574416) can0 577#0000080000000146
(1020000000.575410) can0 533#ED7FCF7EFFF5EF7F
(1020000000.576432) can0 354#200EC00000021880
(1020000000.576433) can0 5E1#8937A0070A00A880
(1020000000.576434) can0 28B#0000000000000000
(1020000000.576435) can0 0A7#00510B25312DA0A0
(1020000000.577431) can0 407#38965FF000019A20
(1020000000.579972) can0 295#0000000000001840
(1020000000.580994) can0 0D0#0A5104623302C600
(1020000000.580995) can0 00E#20541602080973CA
(1020000000.580996) can0 033#11FF4921AC4127D0
(1020000000.581991) can0 193#00080803E8080000
(1020000000.581992) can0 107#0000000000000000
(1020000000.581993) can0 FFF#0000000000000000
(1020000000.583013) can0 20E#4E2003A1633F8FFF
(1020000000.583015) can0 522#DF7FD00079E0001C
(1020000000.583016) can0 366#805DC8020147CE38
(1020000000.583017) can0 580#00000005BE07FBD0
(1020000000.584035) can0 434#007780A5B6C3D8D0
(1020000000.584036) can0 6E0#0269026602690267
(1020000000.584037) can0 0BA#06982C841000068C
(1020000000.584038) can0 498#840020002980B1CA
(1020000000.585035) can0 464#0002400000901A54
(1020000000.585036) can0 125#900040DF40BEF360
(1020000000.585037) can0 03C#0000040034000000
(1020000000.585038) can0 207#040460482ADED518
(1020000000.586055) can0 4C9#01F915820D02F64B
(1020000000.586056) can0 1D6#060F828030240580
(1020000000.586057) can0 2E1#0000000000000004
(1020000000.586058) can0 354#200EC00000020980
(1020000000.587077) can0 5E1#893780070A00A880
(1020000000.587078) can0 162#2448027440121FC9
(1020000000.587079) can0 0A7#00510D25312DA0A0
(1020000000.587082) can0 2B4#14EA020000005800
(1020000000.587083) can0 230#F3000002D4001800
(1020000000.589701) can0 FFF#0000000000000000
(1020000000.590722) can0 153#00000000000C000A
(1020000000.590723) can0 662#4C80000040000000
(1020000000.590724) can0 00E#20541602080973D0
(1020000000.590725) can0 19C#04AE200982002860
(1020000000.591720) can0 0D0#125104623202C600
(1020000000.591721) can0 033#11FF4120AC8127D0
(1020000000.591722) can0 274#58F222FA507CADF3
(1020000000.591723) can0 6E0#026C026702690268
(1020000000.592741) can0 0C0#6000000000000000
(1020000000.593761) can0 69E#0440047D1FC01542
(1020000000.594763) can0 125#900040DF40BED560
(1020000000.594764) can0 3C1#7B551FBAACB9692E
(1020000000.595768) can0 354#200EC00000020980
(1020000000.595769) can0 5E1#893780070A00A880
(1020000000.596805) can0 28B#0000000000000000
(1020000000.596806) can0 0A7#00510E25312DA0A0
(1020000000.596807) can0 03D#0001870000000000
(1020000000.599949) can0 0D0#1A5104643102C600
(1020000000.600948) can0 033#120F391EBCC127D0
(1020000000.600950) can0 00E#20541602080973D0
(1020000000.601970) can0 193#00080803E8080000
(1020000000.601971) can0 107#0000000000000000
(1020000000.601972) can0 FFF#0000000000000000
(1020000000.602972) can0 20E#4E2003A163BFD007
(1020000000.602973) can0 522#DF7FD0007968001C
(1020000000.602974) can0 366#805DC8020147CE38
(1020000000.602975) can0 580#00000005B687FBD0
(1020000000.603991) can0 434#0088E0A5E6F3E900
(1020000000.603992) can0 6E0#0267026702690269
(1020000000.603993) can0 1C4#0002020000800000
(1020000000.603994) can0 125#900040DF40BEB760
(1020000000.605012) can0 2A4#4E1E011C040898D0
(1020000000.605013) can0 FFF#0000000000000000
(1020000000.605014) can0 498#840020002780B20B
(1020000000.605015) can0 32D#80000420AC010020
(1020000000.605016) can0 4FD#114B0A53650E4A08
(1020000000.606003) can0 230#F2000002D4001A00
(1020000000.606004) can0 2E1#0000000000000004
(1020000000.606005) can0 354#200EC00000020200
(1020000000.607031) can0 5E1#893780070A00A880
(1020000000.607032) can0 162#2448027440121FC9
(1020000000.607033) can0 0A7#00511225312DA0A0
(1020000000.609823) can0 FFF#0000000000000000
(1020000000.610822) can0 153#00000000000C000A
(1020000000.610824) can0 00E#20541602080973D0
(1020000000.610825) can0 295#0000000000001840
(1020000000.611843) can0 662#4C80000040000000
(1020000000.611844) can0 19C#08AA200982002860
(1020000000.611845) can0 0D0#225104642F02C700
(1020000000.611846) can0 033#120F311EBD0127D0
(1020000000.612846) can0 274#58F224F8507CADF3
(1020000000.612847) can0 6E0#02680265026A0269
(1020000000.612848) can0 0C0#6000000000000000
(1020000000.612849) can0 419#0A9B464D045FC30F
(1020000000.613863) can0 69E#0440047D1FC01542
(1020000000.614856) can0 585#0040000000020018
(1020000000.614858) can0 125#900040DF40BE9960
(1020000000.615875) can0 354#200EC00000020200
(1020000000.615876) can0 5E1#893780070A00A880
(1020000000.616877) can0 28B#0000000000000000
(1020000000.616878) can0 0A7#00511125312DA0A0
(1020000000.616879) can0 1CA#3FF9FF8000000C38
(1020000000.619303) can0 3C1#7B551FBA6C79E92E
(1020000000.620337) can0 0D0#2A5104642E02C700
(1020000000.620338) can0 033#120F29225D4127D0
(1020000000.621339) can0 00E#20541602080973CA
(1020000000.621340) can0 577#0000080000000148
(1020000000.622362) can0 193#00080803E8080000
(1020000000.622363) can0 107#0000000000000000
(1020000000.622364) can0 FFF#0000000000000000
(1020000000.622367) can0 20E#4E1FFFA1633FD007
(1020000000.622369) can0 522#DF7FD00078F0001C
(1020000000.623375) can0 366#801DC8020147CE38
(1020000000.623376) can0 580#00000005AF07FBD0
(1020000000.623377) can0 434#00A8E0A5F7241930
(1020000000.623378) can0 6E0#026B0266026C0269
(1020000000.624395) can0 0BA#06982C841000068C
(1020000000.624396) can0 125#900040DF40BE7B60
(1020000000.624397) can0 498#840020002480B28C
(1020000000.624398) can0 230#F1000002D4001C00
(1020000000.625437) can0 5B3#0400000000000400
(1020000000.626460) can0 2E1#0000000000000004
(1020000000.626461) can0 354#200EC0000001F300
(1020000000.626462) can0 5E1#893780070A00AC80
(1020000000.626463) can0 162#2448027440121FC9
(1020000000.627457) can0 0A7#00510EA5312DA0A0
(1020000000.627458) can0 2A3#1000028478803C08
(1020000000.629143) can0 FFF#0000000000000000
(1020000000.630208) can0 FFF#0000000000000000
(1020000000.630209) can0 153#00000000000C000A
(1020000000.631195) can0 662#4C80000040000000
(1020000000.631196) can0 00E#20541602080973D6
(1020000000.631197) can0 19C#0CA6200982002860
(1020000000.631198) can0 0D0#325104662B02C900
(1020000000.632215) can0 033#11F7211BCD8127D0
(1020000000.632216) can0 274#58F226F6507CADF3
(1020000000.632217) can0 6E0#026B0268026C026A
(1020000000.632218) can0 0C0#6000000000000000
(1020000000.633714) can0 69E#0440047D1FC01542
(1020000000.634734) can0 125#900040DF40BE5D60
(1020000000.635734) can0 354#200EC0000001E400
(1020000000.636778) can0 5E1#893780070A00AC80
(1020000000.636779) can0 28B#0000000000000000
(1020000000.636780) can0 6FC#0000073DB2BA0800
(1020000000.636781) can0 0A7#00510E25312DA0A0
(1020000000.636782) can0 239#00000069000039A0
(1020000000.639919) can0 295#0000000000001840
(1020000000.640947) can0 0D0#3A5104662A02C900
(1020000000.640948) can0 00E#20541602080973D6
(1020000000.640949) can0 033#11F7191BCDC127D0
(1020000000.640950) can0 0D7#0000020080000000
(1020000000.641964) can0 193#00080803E8080000
(1020000000.641965) can0 107#0000000000000000
(1020000000.641966) can0 FFF#0000000000000000
(1020000000.642967) can0 20E#4E2003A164BFEFF7
(1020000000.642968) can0 522#DF7FD0007878001C
(1020000000.642969) can0 366#805DC8020147CE38
(1020000000.642970) can0 580#00000005AF87FBC0
(1020000000.643984) can0 434#00C720A627544940
(1020000000.643985) can0 6E0#026D0267026B0269
(1020000000.643986) can0 498#840020002380B28D
(1020000000.643987) can0 125#900040DF40BE3F60
(1020000000.645004) can0 230#F0000002D4001E00
(1020000000.645006) can0 3C1#7B551FBC29FAA92E
(1020000000.646002) can0 2E1#0000000000000004
(1020000000.646003) can0 354#200EC0000001E400
(1020000000.647026) can0 5E1#893780070A00AC80
(1020000000.647027) can0 162#2448027440121FC9
(1020000000.647028) can0 0A7#00510B25312DA0A0
(1020000000.647029) can0 497#0000000000000000
(1020000000.649321) can0 2C1#01F42FC7C61E2BD4
(1020000000.650280) can0 FFF#0000000000000000
(1020000000.650282) can0 4CB#8000000000000000
(1020000000.650283) can0 153#00000000000C000A
(1020000000.651338) can0 00E#20541602080973DC
(1020000000.651339) can0 662#4C80000040000000
(1020000000.651340) can0 19C#10A2200982002860
(1020000000.651341) can0 0D0#425104602902C900
(1020000000.652360) can0 033#120711230E0127D0
(1020000000.652361) can0 274#58F228F4507CADF3
(1020000000.652362) can0 6E0#026E0268026A0269
(1020000000.652363) can0 0C0#6000000000000000
(1020000000.653357) can0 2E2#18080D4040000118
(1020000000.653361) can0 345#050202C23C774081
(1020000000.653362) can0 430#003F448C568011A0
(1020000000.653363) can0 130#0001600000000000
(1020000000.653364) can0 280#18E0027000000000
(1020000000.654379) can0 32D#80000420AC010020
(1020000000.654381) can0 69E#0440047D1FC01542
(1020000000.654382) can0 125#900040DF40A00160
(1020000000.654383) can0 4FD#11470A535F0DCA08
(1020000000.655630) can0 354#200EC0000001DC80
(1020000000.656650) can0 5E1#893780070A00B080
(1020000000.656651) can0 28B#0000000000000000
(1020000000.656652) can0 0A7#00510E25312DA0A0
(1020000000.656653) can0 2D2#0000180000000000
(1020000000.657669) can0 66C#0080100020000020
(1020000000.658693) can0 26E#0106408289120A04
(1020000000.659690) can0 FFF#0000000000000000
(1020000000.659691) can0 FFF#0000000000000000
(1020000000.659692) can0 0F4#9A0C010204B10240
(1020000000.660712) can0 0D0#4A5104602802C900
(1020000000.660713) can0 033#1207091E0E4127D0
(1020000000.660714) can0 00E#20541602080973DC
(1020000000.661711) can0 193#00080803E8080000
(1020000000.661712) can0 107#0000000000000000
(1020000000.662733) can0 FFF#0000000000000000
(1020000000.662734) can0 20E#4E2007A1663FEFEF
(1020000000.662735) can0 522#DF7FD0007F80001C
(1020000000.662736) can0 366#809DC8020147CE38
(1020000000.663732) can0 580#000000062007FBC0
(1020000000.663733) can0 434#00E700A657647970
(1020000000.663734) can0 6E0#026B0267026A0269
(1020000000.663735) can0 0BA#06982C841000068C
(1020000000.664750) can0 125#900040DF40BFE360
(1020000000.664751) can0 0F1#3E101CC00359CC00
(1020000000.664752) can0 498#840020002380B24E
(1020000000.664753) can0 230#FF000002D4000000
(1020000000.665751) can0 2E1#0000000000000004
(1020000000.666773) can0 354#200EC0000001DC80
(1020000000.666774) can0 5E1#893760070A00B080
(1020000000.666775) can0 162#2448027440121FC9
(1020000000.666776) can0 0A7#00510EA5312DA0A0
(1020000000.669334) can0 3C1#7B551FBBE9BB292E
(1020000000.670359) can0 FFF#0000000000000000
(1020000000.670360) can0 4E7#00000014036C0000
(1020000000.670361) can0 153#00000000000C000A
(1020000000.671356) can0 00E#20541602080973D6
(1020000000.671357) can0 FFF#0000000000000000
(1020000000.671358) can0 295#0000000000001840
(1020000000.671359) can0 662#4C80000040000000
(1020000000.672377) can0 684#4CD48099415ED01E
(1020000000.672378) can0 636#249C23C10C092000
(1020000000.672379) can0 2D7#100060D800000008
(1020000000.672380) can0 19C#149E200982002860
(1020000000.672381) can0 0D0#525104602802C800
(1020000000.673377) can0 033#1207011E0E8127D0
(1020000000.673378) can0 274#58F22AF2507CADF3
(1020000000.673379) can0 6E0#026A0267026B026A
(1020000000.673380) can0 0C0#6000000000000000
(1020000000.674397) can0 3E4#00D4000084000000
(1020000000.674398) can0 69E#0440047D1FC01542
(1020000000.674399) can0 125#900040DF40BFC560
(1020000000.674400) can0 65C#400812A589A00000
(1020000000.675396) can0 577#0000080000000148
(1020000000.676418) can0 354#200EC0000001CD80
(1020000000.676420) can0 5E1#893760070A00B080
(1020000000.676421) can0 28B#0000000000000000
(1020000000.676422) can0 0A7#00510E25312DA0A0
(1020000000.677417) can0 407#38965FF000019A20
(1020000000.679938) can0 0D0#5A5104622702C800
(1020000000.680937) can0 033#11FEF9205EC127D0
(1020000000.680938) can0 00E#2053D602080973D6
(1020000000.681958) can0 193#00080803E8080000
(1020000000.681960) can0 107#0000000000000000
(1020000000.681961) can0 FFF#0000000000000000
(1020000000.682959) can0 20E#4E2003A1653FF007
(1020000000.682960) can0 522#DF7FD0007F08001C
(1020000000.682961) can0 366#805DC8020147CE38
(1020000000.682962) can0 580#000000061887FBC0
(1020000000.683979) can0 434#0105A0A6879489A0
(1020000000.683980) can0 6E0#026D0267026C026A
(1020000000.683981) can0 498#840020002180B28F
(1020000000.683982) can0 464#0002400000901955
(1020000000.685000) can0 125#900040DF40BFA760
(1020000000.685001) can0 230#FE000002D4000200
(1020000000.685002) can0 03C#0000040034000000
(1020000000.685003) can0 207#040460482ADED518
(1020000000.685004) can0 4C9#01F915820D02F64B
(1020000000.686021) can0 1D6#020B808030240580
(1020000000.686022) can0 2B4#14EA020000005800
(1020000000.686023) can0 2E1#0000000000000004
(1020000000.686024) can0 354#200EC0000001C600
(1020000000.687018) can0 5E1#893760070A00AC80
(1020000000.687019) can0 162#2448027440121FC9
(1020000000.687020) can0 0A7#00511025312DA0A0
(1020000000.689771) can0 FFF#0000000000000000
(1020000000.690791) can0 153#00000000000C000A
(1020000000.690792) can0 662#4CA0000040000000
(1020000000.690793) can0 00E#20541602080973D6
(1020000000.690794) can0 19C#189A200982002860
(1020000000.691790) can0 0D0#625204622502C900
(1020000000.691791) can0 033#11FEF1210F0127D0
(1020000000.691792) can0 274#58F22CF0507CADF3
(1020000000.691793) can0 6E0#026F0269026D026A
(1020000000.692810) can0 0C0#6000000000000000
(1020000000.693811) can0 69E#0440047D1FC01562
(1020000000.694830) can0 125#900040DF40BF8960
(1020000000.694831) can0 3C1#7B551FBA6A7BE92E
(1020000000.695833) can0 354#200EC0000001C600
(1020000000.696855) can0 5E1#893760070A00AC80
(1020000000.696856) can0 28B#0000000000000000
(1020000000.696857) can0 0A7#00510DA5312DA0A0
(1020000000.696858) can0 03D#0001870000000000
(1020000000.699974) can0 295#0000000000001840
(1020000000.700995) can0 0D0#6A5204622402C900
(1020000000.700996) can0 00E#20541602080973D0
(1020000000.700997) can0 033#11FEE9210F4127D0
(1020000000.702018) can0 193#00080803E8080000
(1020000000.702019) can0 107#0000000000000000
(1020000000.702020) can0 FFF#0000000000000000
(1020000000.703018) can0 20E#4E1FFFA1663FB007
(1020000000.703020) can0 522#DF7FD0007E90001C
(1020000000.703021) can0 366#805DC8020147CE38
(1020000000.703022) can0 580#000000061107FBC0
(1020000000.704039) can0 434#012620A697C4B9D0
(1020000000.704040) can0 6E0#026C0269026D026A
(1020000000.704041) can0 0BA#06982C841000068C
(1020000000.704042) can0 125#900040DF40BF6B60
(1020000000.705080) can0 297#1100002000025110
(1020000000.705081) can0 51B#281A3209B28180C1
(1020000000.705082) can0 498#840020002F80B2C0
(1020000000.705083) can0 32D#80000420AC010020
(1020000000.705083) can0 4FD#11440A535B0D4A08
(1020000000.706055) can0 230#FD000002D4000400
(1020000000.706056) can0 2E1#0000000000000004
(1020000000.706057) can0 354#200EC0000001B700
(1020000000.706058) can0 5E1#893760070A00A880
(1020000000.707103) can0 162#2448027440121FC9
(1020000000.707105) can0 0A7#00510E25312DA0A0
(1020000000.707106) can0 55C#101B000041823000
(1020000000.709891) can0 FFF#0000000000000000
(1020000000.710934) can0 153#00000000000C000A
(1020000000.710935) can0 00E#20541602080973DC
(1020000000.710936) can0 662#4CA0000040000000
(1020000000.710937) can0 19C#1C96200982002860
(1020000000.711934) can0 0D0#725204642202CA00
(1020000000.711935) can0 033#11FEE11D1F8127D0
(1020000000.711936) can0 274#58F22EEE507CADF3
(1020000000.711940) can0 6E0#026C0269026C026B
(1020000000.712932) can0 0C0#6000000000000000
(1020000000.713953) can0 69E#0440047D1FC01562
(1020000000.713954) can0 585#0040000000020018
(1020000000.714977) can0 125#900040DF40BF4D60
(1020000000.715973) can0 354#200EC00000022000
(1020000000.715975) can0 5E1#893760070A00A880
(1020000000.716995) can0 28B#0000000000000000
(1020000000.716996) can0 0A7#00510DA5312DA0A0
(1020000000.716997) can0 1CA#3FF9FF8000000C38
(1020000000.719346) can0 3C1#7B551FBAA9BC692E
(1020000000.720369) can0 0D0#7A5204642102CA00
(1020000000.720370) can0 033#11FED9251FC127D0
(1020000000.721390) can0 00E#20541602080973DC
(1020000000.721391) can0 577#0000080000000148
(1020000000.721392) can0 193#00080803E8080000
(1020000000.722410) can0 107#0000000000000000
(1020000000.722411) can0 FFF#0000000000000000
(1020000000.722412) can0 20E#4E2003A165BFAFF7
(1020000000.722413) can0 522#DF7FD0007E18001C
(1020000000.723411) can0 366#805DC8020147CE38
(1020000000.723413) can0 580#000000060987FBC0
(1020000000.723414) can0 434#014680A6C7F4E9E0
(1020000000.723415) can0 6E0#026A026A026B026A
(1020000000.724432) can0 30A#402D7001D4063200
(1020000000.724433) can0 125#900040DF40BF2F60
(1020000000.724434) can0 498#840020002E80B2C1
(1020000000.724435) can0 230#FC000002D4000600
(1020000000.725577) can0 2E1#0000000000000004
(1020000000.726581) can0 354#200EC00000022000
(1020000000.726582) can0 5E1#893760070A00A880
(1020000000.726583) can0 162#2448027440121FC9
(1020000000.726584) can0 0A7#00510DA5312DA0A0
(1020000000.727577) can0 5B3#0400000000000400
(1020000000.727578) can0 2A3#1000028474803C08
(1020000000.729160) can0 FFF#0000000000000000
(1020000000.730201) can0 FFF#0000000000000000
(1020000000.730202) can0 153#00000000000C000A
(1020000000.730203) can0 295#0000000000001840
(1020000000.731204) can0 00E#20541602080973DC
(1020000000.731206) can0 662#4CA0000040000000
(1020000000.731207) can0 19C#00B2200982002860
(1020000000.731208) can0 0D0#025204663002CA00
(1020000000.732223) can0 033#120F51251C0127D0
(1020000000.732224) can0 274#58F220FC507CADF3
(1020000000.732225) can0 6E0#026E0269026B026A
(1020000000.732225) can0 0C0#6000000000000000
(1020000000.733703) can0 69E#0440047D1FC01562
(1020000000.734721) can0 125#900040DF40BF1160
(1020000000.735720) can0 354#200EC00000021880
(1020000000.736742) can0 5E1#893760070A00A480
(1020000000.736743) can0 28B#0000000000000000
(1020000000.736745) can0 6FC#0000073DF2BA1000
(1020000000.736746) can0 0A7#00511225312DA0A0
(1020000000.737741) can0 239#00000068E00039C0
(1020000000.740094) can0 0D7#0000020080000000
(1020000000.741094) can0 0D0#0A5204662F02CA00
(1020000000.741095) can0 00E#20541602080973CA
(1020000000.741096) can0 033#120F491D1C4127D0
(1020000000.742116) can0 193#00080803E8080000
(1020000000.742117) can0 107#0000000000000000
(1020000000.742118) can0 FFF#0000000000000000
(1020000000.743138) can0 20E#4E2003A1653F8FEF
(1020000000.743139) can0 522#DF7FD0007DA0001C
(1020000000.743140) can0 366#805DC8020147CE38
(1020000000.743141) can0 580#000000060207FBC0
(1020000000.744137) can0 434#016860A6F8051A10
(1020000000.744138) can0 6E0#026E0268026B026B
(1020000000.744139) can0 0BA#06982CC41000068C
(1020000000.744140) can0 125#900040DF40BEF360
(1020000000.745158) can0 498#840020002E80B282
(1020000000.745159) can0 3C1#7B551FBA693D292E
(1020000000.745160) can0 230#FB000002D4000800
(1020000000.746179) can0 2E1#0000000000000004
(1020000000.746181) can0 354#200EC00000020980
(1020000000.746182) can0 5E1#893760070A00A880
(1020000000.747178) can0 162#2448027440121FC9
(1020000000.747179) can0 0A7#00511125312DA0A0
(1020000000.747180) can0 497#0000000000000000
(1020000000.749803) can0 FFF#0000000000000000
(1020000000.750803) can0 153#00000000000C000A
(1020000000.750804) can0 662#4CA0000040000000
(1020000000.750805) can0 00E#20541602080973D0
(1020000000.750806) can0 19C#04AE200982002860
(1020000000.751825) can0 0D0#125204662F02C900
(1020000000.751826) can0 033#120F41246C8127D0
(1020000000.751827) can0 274#58F222FA507CADF3
(1020000000.751828) can0 6E0#026C0268026C026D
(1020000000.752827) can0 0C0#6000000000000000
(1020000000.752828) can0 2E2#18080D4040000118
(1020000000.752829) can0 345#050202C23C774081
(1020000000.752830) can0 430#003F448C568011A0
(1020000000.753820) can0 130#0001600000000000
(1020000000.753821) can0 32D#80000420AC010020
(1020000000.753821) can0 4FD#114A0A53630E4A08
(1020000000.754865) can0 69E#0440047D1FC01562
(1020000000.754866) can0 125#900040DF40BED560
(1020000000.754867) can0 2C1#01F1CFC7C71E37EA
(1020000000.755845) can0 354#200EC00000020980
(1020000000.755846) can0 5E1#893760070A00A880
(1020000000.756858) can0 28B#0000000000000000
(1020000000.756859) can0 0A7#00511225312DA0A0
(1020000000.756860) can0 2D2#0000200000000000
(1020000000.756861) can0 2B4#14EA030000005800
(1020000000.757855) can0 66C#0080100020000020
(1020000000.759171) can0 FFF#0000000000000000
(1020000000.760170) can0 FFF#0000000000000000
(1020000000.760171) can0 0F4#9A0C010204B10240
(1020000000.760172) can0 295#0000000000001840
(1020000000.760173) can0 0D0#1A5204602E02C900
(1020000000.761190) can0 00E#20541602080973D6
(1020000000.761191) can0 033#121F39246CC127D0
(1020000000.761192) can0 26E#0106408289120A04
(1020000000.762210) can0 193#00080803E8080000
(1020000000.762211) can0 107#0000000000000000
(1020000000.762212) can0 FFF#0000000000000000
(1020000000.762213) can0 20E#4E2003A1663F6FEF
(1020000000.763210) can0 522#DF7FD0007D28001C
(1020000000.763211) can0 366#805DC8020147CE38
(1020000000.763212) can0 580#000000060287FBB0
(1020000000.763213) can0 434#0186C0A728352A40
(1020000000.764230) can0 6E0#026E0269026E026E
(1020000000.764231) can0 498#840020002980B383
(1020000000.764232) can0 0F8#7EDFF4FD49FBA7B8
(1020000000.764233) can0 125#900040DF40BEB760
(1020000000.765251) can0 230#FA000002D4000A00
(1020000000.765252) can0 025#0000028840400E01
(1020000000.766253) can0 2E1#0000000000000004
(1020000000.766254) can0 354#200F00000001FA00
(1020000000.766255) can0 5E1#893760070A00AC80
(1020000000.766256) can0 162#2448027440121FC9
(1020000000.767272) can0 0A7#005111A5312DA0A0
(1020000000.769301) can0 3C1#7B551FBAE83DA92E
(1020000000.770265) can0 FFF#0000000000000000
(1020000000.770266) can0 4E7#00000015036C0000
(1020000000.770267) can0 153#00000000000C000A
(1020000000.771321) can0 00E#20541602080973CA
(1020000000.771322) can0 FFF#0000000000000000
(1020000000.771323) can0 662#4CA0000040000000
(1020000000.771324) can0 684#4CD48059415ED01E
(1020000000.772324) can0 636#249C24410B893000
(1020000000.772325) can0 2D7#100060D800000008
(1020000000.772326) can0 19C#08AA200982002860
(1020000000.772327) can0 0D0#225204602902CD00
(1020000000.772328) can0 033#121F311EBD0127D0
(1020000000.773342) can0 274#58F224F8507CADF3
(1020000000.773347) can0 6E0#026B0269026F026E
(1020000000.773348) can0 0C0#6000000000000000
(1020000000.773348) can0 3E4#00D4000084000000
(1020000000.774383) can0 65C#400812A589800000
(1020000000.774384) can0 577#0000080000000148
(1020000000.774385) can0 69E#0440047D1FC01562
(1020000000.774386) can0 125#900040DF40BE9960
(1020000000.775631) can0 354#200F00000001FA00
(1020000000.776654) can0 5E1#893760070A00B080
(1020000000.776655) can0 28B#0000000000000000
(1020000000.776656) can0 0A7#00510D25312DA0A0
(1020000000.776657) can0 407#38925FF000019A20
(1020000000.779954) can0 0D0#2A5204622802CD00
(1020000000.781006) can0 033#120729210D4127D0
(1020000000.781007) can0 00E#20541602080973CA
(1020000000.782006) can0 193#00080803E8080000
(1020000000.782008) can0 107#0000000000000000
(1020000000.782009) can0 FFF#0000000000000000
(1020000000.783028) can0 20E#4E2003A1663FAFF7
(1020000000.783029) can0 522#DF7FD0007CB0001C
(1020000000.783030) can0 366#805DC8020147CE38
(1020000000.783031) can0 580#00000005FB07FBB0
(1020000000.784047) can0 434#01A600A738655A70
(1020000000.784049) can0 6E0#02700269026E026F
(1020000000.784050) can0 0BA#06982E841000068C
(1020000000.784050) can0 498#840020002780B3C4
(1020000000.784051) can0 464#0002400000901856
(1020000000.785049) can0 125#900040DF40BE7B60
(1020000000.785050) can0 03C#0000040034000000
(1020000000.785051) can0 207#0404E0582ADED518
(1020000000.785052) can0 4C9#01F915820D02F64B
(1020000000.786048) can0 1D6#020F828030240580
(1020000000.786049) can0 2B4#14EA030000005800
(1020000000.786050) can0 2E1#0000000000000004
(1020000000.786051) can0 354#200EC0000001F300
(1020000000.787092) can0 5E1#893740070A00B080
(1020000000.787093) can0 162#2448027440121FC9
(1020000000.787094) can0 0A7#00510C25312DA0A0
(1020000000.787095) can0 230#F9000002D4000C00
(1020000000.789671) can0 FFF#0000000000000000
(1020000000.790694) can0 153#00000000000C000A
(1020000000.790695) can0 295#0000000000001840
(1020000000.790696) can0 00E#20541602080973CA
(1020000000.790697) can0 662#4CA0000040000000
(1020000000.791716) can0 19C#0CA8200942002860
(1020000000.791718) can0 0D0#325204622602CE00
(1020000000.791719) can0 033#120721210D8127D0
(1020000000.791720) can0 274#58F226F6507CADEF
(1020000000.792713) can0 6E0#0270026B026D026D
(1020000000.792714) can0 0C0#6000000000000000
(1020000000.793733) can0 69E#0440047D1FC01542
(1020000000.794733) can0 125#900040DF40BE5D60
(1020000000.794734) can0 3C1#7B551FBBA6BE692E
(1020000000.795775) can0 354#200EC0000001E400
(1020000000.796776) can0 5E1#893740070A00B480
(1020000000.796777) can0 28B#0000000000000000
(1020000000.796778) can0 0A7#005109A5312DA0A0
(1020000000.796779) can0 03D#0001868000000000
(1020000000.799898) can0 0D0#3A5204622502CE00
(1020000000.800921) can0 033#120719246DC127D0
(1020000000.800922) can0 00E#20541602080973D6
(1020000000.801943) can0 193#00080803E8080000
(1020000000.801944) can0 107#0000000000000000
(1020000000.801945) can0 FFF#0000000000000000
(1020000000.802942) can0 20E#4E2003A1673FCFFF
(1020000000.802944) can0 522#DF7FD0007C38001C
(1020000000.802945) can0 366#809DC8020147CE38
(1020000000.802946) can0 580#00000005F387FBB0
(1020000000.803962) can0 434#01C640A768958A80
(1020000000.803963) can0 6E0#0273026D026C026D
(1020000000.803964) can0 498#840020002880B345
(1020000000.803965) can0 125#900040DF40BE3F60
(1020000000.805007) can0 32D#80000420AC010020
(1020000000.805012) can0 4FD#11490A53610E4A08
(1020000000.805013) can0 230#F8000002D4000E00
(1020000000.806031) can0 2E1#0000000000000004
(1020000000.806033) can0 354#200EC0000001E400
(1020000000.807050) can0 5E1#893740070A00B480
(1020000000.807052) can0 162#2448027440121FC9
(1020000000.807053) can0 0A7#00510BA5312DA0A0
(1020000000.809793) can0 FFF#0000000000000000
(1020000000.810782) can0 153#00000000000C000A
(1020000000.810783) can0 662#4CA0000040000000
(1020000000.810784) can0 00E#20541602080973DC
(1020000000.810785) can0 19C#10A2200982002860
(1020000000.811805) can0 0D0#425204642602CC00
(1020000000.811806) can0 033#1217111CBE0127D0
(1020000000.811807) can0 274#58F228F4507CADF3
(1020000000.811808) can0 6E0#026B026A026C026C
(1020000000.812795) can0 0C0#6000000000000000
(1020000000.813827) can0 585#0040000000020018
(1020000000.814851) can0 69E#0440047D1FC01562
(1020000000.814853) can0 125#900040DF40A00160
(1020000000.815845) can0 354#200EC0000001DC80
(1020000000.816868) can0 5E1#893740070A00B080
(1020000000.816869) can0 28B#0000000000000000
(1020000000.816870) can0 0A7#00511025312DA0A0
(1020000000.816871) can0 1CA#3FF9FF8000000C38
(1020000000.819332) can0 3C1#7B551FBBE5FEE92E
(1020000000.820345) can0 295#0000000000001840
(1020000000.820347) can0 0D0#4A5204642502CC00
(1020000000.821367) can0 00E#20541602080973CA
(1020000000.821369) can0 033#1217091CBE4127D0
(1020000000.821370) can0 577#0000080000000148
(1020000000.822304) can0 193#00080803E8080000
(1020000000.822305) can0 107#0000000000000000
(1020000000.822306) can0 FFF#0000000000000000
(1020000000.822307) can0 20E#4E2003A1683FF007
(1020000000.823403) can0 522#DF7FD0007BC0001C
(1020000000.823404) can0 366#809DC8020147CE38
(1020000000.823405) can0 580#00000005EC07FBB0
(1020000000.823406) can0 434#01E5A0A798A59AB0
(1020000000.823407) can0 6E0#026C026A026B026D
(1020000000.824409) can0 0BA#06A82E441000068C
(1020000000.824410) can0 125#900040DF40BFE360
(1020000000.824411) can0 498#840020002780B346
(1020000000.824412) can0 230#F7000002D4001000
(1020000000.825444) can0 5B3#0400000000000400
(1020000000.826518) can0 2E1#0000000000000004
(1020000000.826519) can0 354#200EC0000001CD80
(1020000000.826520) can0 5E1#893740070A00A880
(1020000000.826521) can0 162#2448027440121FC9
(1020000000.827552) can0 0A7#00511125312DA0A0
(1020000000.827554) can0 2A3#1000028472803C08
(1020000000.829107) can0 FFF#0000000000000000
(1020000000.830113) can0 FFF#0000000000000000
(1020000000.831138) can0 153#00000000000C000A
(1020000000.831140) can0 00E#20541602080973D6
(1020000000.831141) can0 662#4CA0000040000000
(1020000000.831141) can0 19C#149E200982002860
(1020000000.831142) can0 0D0#525204642402CC00
(1020000000.832155) can0 033#121701246E8127D0
(1020000000.832156) can0 274#58F22AF2507CADF3
(1020000000.832157) can0 6E0#0272026A0270026F
(1020000000.832158) can0 0C0#6000000000000000
(1020000000.833728) can0 69E#0440047D1FC01542
(1020000000.834734) can0 125#900040DF40BFC560
(1020000000.835756) can0 354#200EC0000001CD80
(1020000000.836784) can0 5E1#893740070A00A480
(1020000000.836785) can0 28B#0000000000000000
(1020000000.836787) can0 6FC#0000073D72BA1000
(1020000000.836788) can0 0A7#005113A5312DA0A0
(1020000000.836789) can0 239#00000068A00039E0
(1020000000.839952) can0 0D0#5A5204662302CC00
(1020000000.840964) can0 033#1216F91E0EC127D0
(1020000000.840966) can0 00E#20541602080973D0
(1020000000.840972) can0 0D7#0000020080000000
(1020000000.841983) can0 193#00080803E8080000
(1020000000.841984) can0 107#0000000000000000
(1020000000.841985) can0 FFF#0000000000000000
(1020000000.842993) can0 20E#4E2003A1673FEFFF
(1020000000.842995) can0 522#DF7FD0007B48001C
(1020000000.842996) can0 366#805DC8020147CE38
(1020000000.842996) can0 580#00000005EC87FBA0
(1020000000.844013) can0 434#020820A7C8D5CAE0
(1020000000.844015) can0 6E0#0271026A02710271
(1020000000.844016) can0 498#840020002280B447
(1020000000.844016) can0 125#900040DF40BFA760
(1020000000.845005) can0 230#F6000002D4001200
(1020000000.845007) can0 3C1#7B551FBC24FFA92E
(1020000000.846034) can0 2E1#0000000000000004
(1020000000.846036) can0 354#200F00000001BE00
(1020000000.847049) can0 5E1#893740070A00A880
(1020000000.847051) can0 162#2448027440121FC9
(1020000000.847052) can0 0A7#005111A5312DA0A0
(1020000000.847053) can0 497#0000000000000000
(1020000000.849908) can0 FFF#0000000000000000
(1020000000.850966) can0 153#00000000000C000A
(1020000000.850968) can0 00E#20541602080973D0
(1020000000.850969) can0 295#0000000000001840
(1020000000.850971) can0 662#4CA0000040000000
(1020000000.851981) can0 19C#189A200982002860
(1020000000.851982) can0 0D0#625204661E02D000
(1020000000.851983) can0 033#1216F11E0F0127D0
(1020000000.851984) can0 274#58F22CF0507CADF3
(1020000000.852991) can0 6E0#0270026A026F0271
(1020000000.852993) can0 0C0#6000000000000000
(1020000000.852994) can0 2E2#18080D4040000118
(1020000000.852995) can0 345#050202C23C774081
(1020000000.853984) can0 430#003F448C568011A0
(1020000000.853986) can0 130#0001600000000000
(1020000000.853987) can0 4CB#8000000000000000
(1020000000.853988) can0 1C4#0002020000C00000
(1020000000.855010) can0 69E#0440047D1FC01562
(1020000000.855012) can0 125#900040DF40BF8960
(1020000000.855013) can0 280#18E0027000000000
(1020000000.855013) can0 2A4#2E8C021C040898D0
(1020000000.855014) can0 32D#80000420AC010020
(1020000000.856026) can0 4FD#11440A535B0D4A88
(1020000000.856028) can0 354#200F00000001BE00
(1020000000.856029) can0 5E1#893740070A00A880
(1020000000.857030) can0 28B#0000000000000000
(1020000000.857032) can0 0A7#00510FA5312DA0A0
(1020000000.857033) can0 2D2#0000280000000000
(1020000000.857034) can0 55C#101B000041823000
(1020000000.858047) can0 66C#0080100018000020
(1020000000.859049) can0 26E#0106408289120A04
(1020000000.860084) can0 2C1#01F40FC7C59E05FE
(1020000000.860085) can0 FFF#0000000000000000
(1020000000.860087) can0 FFF#0000000000000000
(1020000000.860088) can0 0F4#9A0C010204B10240
(1020000000.861114) can0 0D0#6A5204601D02D000
(1020000000.861116) can0 00E#20541602080973D6
(1020000000.861117) can0 033#1226E9240F4127D0
(1020000000.862111) can0 193#00080803E8080000
(1020000000.862113) can0 107#0000000000000000
(1020000000.862114) can0 FFF#0000000000000000
(1020000000.863132) can0 20E#4E2007A1683FEFEF
(1020000000.863133) can0 522#DF7FD0007AD0001C
(1020000000.863134) can0 366#809DC8020147CE38
(1020000000.863135) can0 580#00000005E507FBA0
(1020000000.864133) can0 434#022820A7D905FB10
(1020000000.864134) can0 6E0#026F027102700271
(1020000000.864135) can0 0BA#06A82DC41000068C
(1020000000.864136) can0 125#900040DF40BF6B60
(1020000000.865173) can0 498#840020002180B448
(1020000000.865175) can0 FFF#0000000000000000
(1020000000.865176) can0 230#F5000002D4001400
(1020000000.866170) can0 2E1#0000000000000004
(1020000000.866178) can0 354#200F00000001AF00
(1020000000.866179) can0 5E1#893720070A00AC80
(1020000000.867191) can0 162#2448027440121FC9
(1020000000.867193) can0 0A7#00510FA5312DA0A0
(1020000000.869309) can0 3C1#7B551FBBE480292E
(1020000000.870247) can0 FFF#0000000000000000
(1020000000.870249) can0 4E7#00000015036C0000
(1020000000.871339) can0 00E#20541602080973CA
(1020000000.871340) can0 153#00000000000C000A
(1020000000.871341) can0 FFF#0000000000000000
(1020000000.871343) can0 662#4CA0000040000000
(1020000000.872355) can0 684#4CD48099415ED01E
(1020000000.872357) can0 636#249C24C10B894000
(1020000000.872358) can0 2D7#100060D800000008
(1020000000.872358) can0 19C#1C98200942002860
(1020000000.872359) can0 0D0#725204601C02D000
(1020000000.873357) can0 033#1226E122BF8127D0
(1020000000.873358) can0 274#58F22EEE507CADEF
(1020000000.873359) can0 6E0#026F026F02710270
(1020000000.873360) can0 0C0#6000000000000000
(1020000000.874384) can0 3E4#00D4000084000000
(1020000000.874386) can0 65C#400812A589600000
(1020000000.874387) can0 69E#0440047D1FC01542
(1020000000.874388) can0 125#900040DF40BF4D60
(1020000000.875375) can0 577#0000080000000148
(1020000000.876404) can0 354#200F000000021800
(1020000000.876406) can0 5E1#893720070A00B080
(1020000000.876407) can0 28B#0000000000000000
(1020000000.876408) can0 0A7#00510CA5312DA0A0
(1020000000.877419) can0 407#38905FF0000199E0
(1020000000.879922) can0 295#0000000000001840
(1020000000.880959) can0 0D0#7A5204601B02D000
(1020000000.880961) can0 00E#20541602080973D0
(1020000000.880962) can0 033#1226D922BFC127D0
(1020000000.881999) can0 193#00080803E8080000
(1020000000.882001) can0 107#0000000000000000
(1020000000.882002) can0 FFF#0000000000000000
(1020000000.883003) can0 20E#4E2003A167BFEFF7
(1020000000.883005) can0 522#DF7FD0007A58001C
(1020000000.883007) can0 655#5403FC0010000000
(1020000000.883008) can0 366#805DC8020147CE38
(1020000000.884010) can0 580#00000005DD87FBA0
(1020000000.884012) can0 434#024000A809362B20
(1020000000.884013) can0 6E0#026D026B02710271
(1020000000.884014) can0 498#840020001F80B489
(1020000000.885062) can0 125#900040DF40BF2F60
(1020000000.885063) can0 464#0002400000901757
(1020000000.885064) can0 03C#0000040034000000
(1020000000.885065) can0 207#040460482ADED518
(1020000000.886019) can0 4C9#01F915820D02F64B
(1020000000.886021) can0 1D6#020B808030240580
(1020000000.886022) can0 2E1#0000000000000004
(1020000000.886023) can0 354#200F000000021800
(1020000000.886024) can0 5E1#893720070A00B080
(1020000000.887083) can0 162#2448027440121FC9
(1020000000.887084) can0 0A7#00510D25312DA0A0
(1020000000.887085) can0 2B4#14EA030000005800
(1020000000.887086) can0 230#F4000002D4001600
(1020000000.889900) can0 FFF#0000000000000000
(1020000000.890882) can0 153#00000000000C000A
(1020000000.890884) can0 00E#20541602080973D6
(1020000000.890885) can0 662#4C80000040000000
(1020000000.890886) can0 19C#00B4200942002860
(1020000000.891873) can0 0D0#025104622902D100
(1020000000.891875) can0 033#121F51200C0127D0
(1020000000.891876) can0 274#58F220FC507CADEF
(1020000000.891877) can0 6E0#0271026D02710271
(1020000000.892856) can0 0C0#6000000000000000
(1020000000.893891) can0 69E#0440047D1FC01542
(1020000000.893893) can0 125#900040DF40BF1160
(1020000000.894888) can0 3C1#7B551FBAE4C0E92E
(1020000000.895928) can0 354#200EC00000021880
(1020000000.895929) can0 5E1#893720070A00B480
(1020000000.896927) can0 28B#0000000000000000
(1020000000.896928) can0 0A7#00510DA5312DA0A0
(1020000000.896929) can0 03D#0001868000000000
(1020000000.899865) can0 0D0#0A5104622802D100
(1020000000.900857) can0 033#121F49267C4127D0
(1020000000.900858) can0 00E#20541602080973D0
(1020000000.901895) can0 193#00080803E8080000
(1020000000.901896) can0 20E#4E2003A1673FF00F
(1020000000.901897) can0 107#0000000000000000
(1020000000.902934) can0 FFF#0000000000000000
(1020000000.902935) can0 522#DF7FD00079E0001C
(1020000000.902936) can0 366#805DC8020147CE38
(1020000000.902937) can0 580#00000005D607FBA0
(1020000000.903952) can0 434#026000A839463B50
(1020000000.903954) can0 6E0#0275026D02710271
(1020000000.903955) can0 0BA#06A82DC41000068C
(1020000000.903956) can0 125#900040DF40BEF360
(1020000000.905001) can0 51B#2842A9CA3A918941
(1020000000.905002) can0 498#840020001E80B48A
(1020000000.905003) can0 32D#80000420AC010020
