(1090000000.000000) can0 033#000780000F0007D0
(1090000000.000001) can0 162#00080003EA11F4CE
(1090000000.000002) can0 0A7#2010FA24D125C0A0
(1090000000.000997) can0 32D#00000424CC010000
(1090000000.002018) can0 576#7FF800003FFC1FC0
(1090000000.005084) can0 193#00080803E6E80000
(1090000000.006082) can0 20E#4E2007A0003FAFFF
(1090000000.006083) can0 522#DF7FD08E6E304EDC
(1090000000.006084) can0 366#7FDDC8020147CE78
(1090000000.006085) can0 580#00000003CB080000
(1090000000.007069) can0 434#03AAA0A2F2F30300
(1090000000.007070) can0 6E0#0000000000000000
(1090000000.007071) can0 498#87FFBFFCF180000B
(1090000000.007072) can0 230#DC0008E2D4000C00
(1090000000.008090) can0 153#00000004000C0004
(1090000000.008091) can0 354#1FFF40000003F280
(1090000000.009113) can0 00E#2052960208097590
(1090000000.009114) can0 5E1#893FE00B0A000080
(1090000000.009115) can0 69E#0440047E1FC01502
(1090000000.009116) can0 125#90003F5F3AE2F160
(1090000000.010133) can0 295#0000000000000840
(1090000000.010134) can0 662#4C20000040000000
(1090000000.010135) can0 28B#0000000000000000
(1090000000.010136) can0 19C#1A08201B82002720
(1090000000.011135) can0 0D0#6A610C60EF000000
(1090000000.011136) can0 033#000778000F4007D0
(1090000000.011138) can0 274#00F20DF1107C86B9
(1090000000.011139) can0 0C0#2000000000000000
(1090000000.012188) can0 0A7#2010FA24D125C0A0
(1090000000.012189) can0 03D#00002A8000000000
(1090000000.012190) can0 FFF#0000000000000000
(1090000000.013211) can0 4CB#8000000000000000
(1090000000.013212) can0 280#18E0027000000000
(1090000000.013213) can0 3C1#7B551FBC30F3A92E
(1090000000.013228) can0 03C#0000040031000000
(1090000000.014207) can0 207#24046048129E94D0
(1090000000.014208) can0 4C9#019915820D00F64B
(1090000000.014209) can0 1D6#060B808030244080
(1090000000.015226) can0 6E0#0000000000000000
(1090000000.016934) can0 107#0000000000000000
(1090000000.017957) can0 FFF#0000000000000000
(1090000000.017959) can0 0BA#06980E441000050C
(1090000000.017960) can0 0D0#72610C60EE000000
(1090000000.018956) can0 2E1#0000000000000004
(1090000000.018958) can0 00E#2052D6020809758A
(1090000000.018959) can0 354#1FFF40000003E380
(1090000000.018959) can0 125#90003F5F3AE2D360
(1090000000.019978) can0 5E1#893FE00B0A000080
(1090000000.019979) can0 033#000770000F8007D0
(1090000000.019980) can0 162#00080003EA11F4CE
(1090000000.019981) can0 0A7#2010FA24D125C0A0
(1090000000.020977) can0 577#0000080000000146
(1090000000.020978) can0 585#0040000000020018
(1090000000.025064) can0 193#00080803E6E80000
(1090000000.026102) can0 20E#4E2003A0003F8FFF
(1090000000.026126) can0 522#DF7FD08E6DB84EDC
(1090000000.026128) can0 366#7FDDC8020147CE78
(1090000000.026129) can0 580#00000003C3880000
(1090000000.027091) can0 434#03CAA0A2F2F30300
(1090000000.027093) can0 6E0#0000000000000000
(1090000000.027094) can0 498#87FFBFFCF080000C
(1090000000.027095) can0 230#DB0008E2D4000E00
(1090000000.028149) can0 153#00000004000C0004
(1090000000.028150) can0 354#1FFF40000003E380
(1090000000.029155) can0 00E#2052D6020809758A
(1090000000.029156) can0 5E1#893FE00B0A000080
(1090000000.029157) can0 69E#0440047E20001502
(1090000000.029157) can0 125#90003F5F3AE2B560
(1090000000.030133) can0 662#4C20000040000000
(1090000000.030135) can0 28B#0000000000000000
(1090000000.030136) can0 19C#1E04201B82002720
(1090000000.030137) can0 0D0#7A610C60ED000000
(1090000000.031164) can0 033#000768000FC007D0
(1090000000.031166) can0 274#00F20FEF107C86B9
(1090000000.031167) can0 0C0#2000000000000000
(1090000000.031170) can0 0A7#2010FA24E125C0A0
(1090000000.032185) can0 1CA#3FF9FF8000000CA0
(1090000000.032186) can0 FFF#0000000000000000
(1090000000.035083) can0 6E0#0000000000000000
(1090000000.036101) can0 66C#0080100020000020
(1090000000.037151) can0 107#0000000000000000
(1090000000.038158) can0 FFF#0000000000000000
(1090000000.038159) can0 295#0000000000000840
(1090000000.038160) can0 2E1#0000000000000004
(1090000000.039145) can0 00E#2052960208097590
(1090000000.039146) can0 3C1#7B551FBBF074692E
(1090000000.039147) can0 354#1FFF40000003D480
(1090000000.039163) can0 125#90003F5F3AE29760
(1090000000.040166) can0 5E1#893FE00B0A000080
(1090000000.040167) can0 0D0#02610C60FC000000
(1090000000.040168) can0 033#0007E0000C0007D0
(1090000000.040169) can0 162#00080003EA11F4CE
(1090000000.041186) can0 0A7#2010FA24D125C0A0
(1090000000.041188) can0 2A3#00000003FE803C00
(1090000000.041189) can0 4FD#114B0A50650E4A08
(1090000000.042993) can0 0D7#0000020080000000
(1090000000.044403) can0 26E#010A00828A720A04
(1090000000.045428) can0 193#00080803E6E80000
(1090000000.045429) can0 20E#4E2003A0003FAFFF
(1090000000.046447) can0 522#DF7FD08E6D404EDC
(1090000000.046448) can0 366#7FDDC8020147CE78
(1090000000.046449) can0 580#00000003BC080000
(1090000000.046450) can0 434#03EAA0A2F2F30300
(1090000000.047468) can0 6E0#0000000000000000
(1090000000.047469) can0 498#87FFBFFCEF80000D
(1090000000.047470) can0 230#DA0008E2D4001000
(1090000000.047471) can0 32D#00000424CC010000
(1090000000.048468) can0 153#00000004000C0004
(1090000000.048469) can0 354#1FFF40000003CD00
(1090000000.048470) can0 00E#205296020809758A
(1090000000.049492) can0 5E1#893FE00B0A000080
(1090000000.049494) can0 69E#0440047E1FC01502
(1090000000.049496) can0 125#90003F5F3AE27960
(1090000000.049497) can0 662#4C20000040000000
(1090000000.050484) can0 28B#0000000000000000
(1090000000.050485) can0 19C#0220201B82002720
(1090000000.050486) can0 0D0#0A610C60FB000000
(1090000000.050487) can0 033#0007D8000C4007D0
(1090000000.051543) can0 274#00F201FD107C86B9
(1090000000.051544) can0 0C0#2000000000000000
(1090000000.051545) can0 6FC#00000758D0B75800
(1090000000.051546) can0 0A7#2010FA24D125C0A0
(1090000000.051547) can0 239#0000007D00004180
(1090000000.052509) can0 FFF#0000000000000000
(1090000000.055060) can0 6E0#0000000000000000
(1090000000.056080) can0 FFF#0000000000000000
(1090000000.057100) can0 107#0000000000000000
(1090000000.058119) can0 FFF#0000000000000000
(1090000000.058120) can0 0BA#06980EC41000050C
(1090000000.058121) can0 0D0#12610C60FA000000
(1090000000.059098) can0 2E1#0000000000000004
(1090000000.059099) can0 00E#2052960208097590
(1090000000.059100) can0 354#1FFF40000003CD00
(1090000000.059101) can0 125#90003F5F3AE25B60
(1090000000.059102) can0 5E1#893FE00B0A000080
(1090000000.060137) can0 033#0007D0000C8007D0
(1090000000.060138) can0 2E2#18080D4040000118
(1090000000.060139) can0 345#050202C23C774081
(1090000000.060140) can0 430#0034478BFC8012A0
(1090000000.061137) can0 FFF#0000000000000000
(1090000000.061138) can0 FFF#0000000000000000
(1090000000.061139) can0 0F4#9A0C010204710240
(1090000000.061140) can0 162#00080003EA11F4CE
(1090000000.062156) can0 0A7#2010FA24D125C0A0
(1090000000.062157) can0 130#0001600000000000
(1090000000.062158) can0 497#0000000000000000
(1090000000.063157) can0 3C1#7B551FBC6F74E92E
(1090000000.065045) can0 193#00080803E6E80000
(1090000000.066100) can0 20E#4E2003A0003FCFFF
(1090000000.066101) can0 522#DF7FD08E6CC84EDC
(1090000000.066102) can0 366#7FDDC8020147CE78
(1090000000.066103) can0 580#00000003B4880000
(1090000000.067102) can0 434#040AA0A2F2F30300
(1090000000.067104) can0 6E0#0000000000000000
(1090000000.067105) can0 498#87FFBFFCEE80000E
(1090000000.067106) can0 230#D90008E2D4001200
(1090000000.068144) can0 4E7#0000001203890000
(1090000000.068163) can0 354#1FFF40000003BE00
(1090000000.069122) can0 00E#205296020809758A
(1090000000.069123) can0 153#00000004000C0004
(1090000000.069124) can0 69E#0440047E1FC01502
(1090000000.069125) can0 125#90003F5F3AE23D60
(1090000000.070158) can0 FFF#0000000000000000
(1090000000.070159) can0 5E1#893FE00B0A000080
(1090000000.070160) can0 295#0000000000000840
(1090000000.070161) can0 662#4C20000040000000
(1090000000.071159) can0 684#28DA8019417C501E
(1090000000.071160) can0 636#24A40000F1003000
(1090000000.071161) can0 2D7#100060D800000008
(1090000000.071162) can0 28B#0000000000000000
(1090000000.072151) can0 19C#061C201B82002720
(1090000000.072152) can0 0D0#1A610C60F9000000
(1090000000.072153) can0 033#0007C8000CC007D0
(1090000000.072154) can0 274#00F203FB107C86B9
(1090000000.073175) can0 0C0#2000000000000000
(1090000000.073176) can0 0A7#2010FA24D125C0A0
(1090000000.073177) can0 2D2#0000080000000000
(1090000000.073178) can0 FFF#0000000000000000
(1090000000.074170) can0 3E4#0134000005000000
(1090000000.074171) can0 65C#4011D27750000000
(1090000000.074172) can0 577#0000080000000146
(1090000000.075192) can0 6E0#0000000000000000
(1090000000.076921) can0 107#0000000000000000
(1090000000.077926) can0 FFF#0000000000000000
(1090000000.077927) can0 0D0#22610C60F8000000
(1090000000.078924) can0 2E1#0000000000000004
(1090000000.078925) can0 00E#205296020809758A
(1090000000.078926) can0 354#1FFF40000003B680
(1090000000.078927) can0 125#90003F5F3AE21F60
(1090000000.079945) can0 5E1#893FE00B0A000080
(1090000000.079946) can0 033#0007C0000D0007D0
(1090000000.079947) can0 162#00080003EA11F4CE
(1090000000.079948) can0 0A7#2010FA24D125C0A0
(1090000000.080963) can0 FFF#0000000000000000
(1090000000.082923) can0 2C1#01F3EFC7CB9E43AA
(1090000000.085079) can0 193#00080803E6E80000
(1090000000.086084) can0 20E#4E2003A0003FCFFF
(1090000000.086086) can0 522#DF7FD08E6C504EDC
(1090000000.086087) can0 366#7FDDC8020147CE78
(1090000000.086088) can0 580#00000003AD080000
(1090000000.087093) can0 434#042AA0A2F2F30300
(1090000000.087094) can0 6E0#0000000000000000
(1090000000.087095) can0 2B4#04410500000BB800
(1090000000.087096) can0 498#87FFBFFCED80000F
(1090000000.088124) can0 464#0002400000901796
(1090000000.088125) can0 230#D80008E2D4001400
(1090000000.088126) can0 153#00000004000C0004
(1090000000.088127) can0 3C1#7B551FBB6FB5A92E
(1090000000.089114) can0 00E#2052D60208097584
(1090000000.089115) can0 354#1FFF40000003B680
(1090000000.089116) can0 69E#0440047E1FC01522
(1090000000.089117) can0 125#90003F5F3AE3E160
(1090000000.090122) can0 5E1#893FE00B0A000080
(1090000000.090123) can0 662#4C20000040000000
(1090000000.090124) can0 28B#0000000000000000
(1090000000.090125) can0 19C#0A18201B82002720
(1090000000.091131) can0 0D0#2A610C60F7000000
(1090000000.091132) can0 033#0007B8000D4007D0
(1090000000.091133) can0 274#00F205F9107C86B9
(1090000000.091134) can0 0C0#2000000000000000
(1090000000.092131) can0 0A7#2010FA24D125C0A0
(1090000000.092132) can0 5B3#0400000000006800
(1090000000.092133) can0 407#40015FF016401CE0
(1090000000.092134) can0 FFF#0000000000000000
(1090000000.093151) can0 4FD#11480A4F610DCA08
(1090000000.093152) can0 075#0F8E000FD51EA000
(1090000000.095058) can0 6E0#0000000000000000
(1090000000.096957) can0 107#0000000000000000
(1090000000.097978) can0 FFF#0000000000000000
(1090000000.097980) can0 0BA#06980EC41000050C
(1090000000.097995) can0 51B#28B181B189C7F8C1
(1090000000.097996) can0 295#0000000000000840
(1090000000.098992) can0 2E1#0000000000000004
(1090000000.098993) can0 00E#205296020809757E
(1090000000.098994) can0 354#1FFF40000003A780
(1090000000.098995) can0 125#90003F5F3AE3C360
(1090000000.100034) can0 5E1#893FE00B0A000080
(1090000000.100035) can0 0D0#32610C60F6000000
(1090000000.100036) can0 033#0007B0000D8007D0
(1090000000.100037) can0 162#00080003EA11F4CE
(1090000000.101055) can0 0A7#2010FA24E125C0A0
(1090000000.101056) can0 32D#00000424CC010000
(1090000000.101057) can0 03A#00000000001DC000
(1090000000.102909) can0 5FD#BDDDFDFFFEFFEDDA
(1090000000.105099) can0 193#00080803E6E80000
(1090000000.106116) can0 20E#4E2003A0003FAFFF
(1090000000.106117) can0 522#DF7FD08E6BD84EDC
(1090000000.106118) can0 366#7FDDC8020147CE78
(1090000000.106119) can0 580#00000003A5880000
(1090000000.107136) can0 434#044AA0A2F2F30300
(1090000000.107137) can0 6E0#0000000000000000
(1090000000.107138) can0 498#87FFBFFCFC800000
(1090000000.107139) can0 230#D70008E2D4001600
(1090000000.108143) can0 153#00000004000C0004
(1090000000.108144) can0 354#1FFF40000003A780
(1090000000.109181) can0 00E#2052960208097590
(1090000000.109183) can0 5E1#893FE00B0A000080
(1090000000.109184) can0 69E#0440047E1FC01502
(1090000000.109184) can0 125#90003F5F3AE3A560
(1090000000.110179) can0 662#4C20000040000000
(1090000000.110180) can0 28B#0000000000000000
(1090000000.110184) can0 19C#0E14201B82002720
(1090000000.110185) can0 0D0#3A610C60F5000000
(1090000000.111151) can0 033#0007A8000DC007D0
(1090000000.111152) can0 274#00F207F7107C86B9
(1090000000.111153) can0 0C0#2000000000000000
(1090000000.111154) can0 0A7#2010FA24D125C0A0
(1090000000.112151) can0 03D#00002A8000000000
(1090000000.112152) can0 4EE#A00028041636A000
(1090000000.112153) can0 FFF#0000000000000000
(1090000000.113222) can0 3C1#7B551FBBEEB6292E
(1090000000.113223) can0 0FD#0000010080100000
(1090000000.114219) can0 03C#0000040031000000
(1090000000.114220) can0 FFF#0000000000000000
(1090000000.114221) can0 207#24046048129E94D0
(1090000000.114222) can0 4C9#019955820D00F64B
(1090000000.115244) can0 1D6#020F828030244080
(1090000000.115246) can0 1A4#00000002E4CC0000
(1090000000.115247) can0 025#0000168840522AE1
(1090000000.115248) can0 6E0#0000000000000000
(1090000000.116951) can0 107#0000000000000000
(1090000000.117932) can0 FFF#0000000000000000
(1090000000.117933) can0 0D0#42610C60F4000000
(1090000000.118945) can0 2E1#0000000000000004
(1090000000.118946) can0 00E#2052D6020809758A
(1090000000.118947) can0 354#1FFF400000041080
(1090000000.118948) can0 125#90003F5F3AE38760
(1090000000.119946) can0 5E1#893FE00B0A000080
(1090000000.119947) can0 033#0007A0000E0007D0
(1090000000.119948) can0 162#00080003EA11F4CE
(1090000000.119949) can0 0A7#2010FA24D125C0A0
(1090000000.121000) can0 55C#101C000043863000
(1090000000.121001) can0 577#0000080000000146
(1090000000.121002) can0 585#0040000000020018
(1090000000.121003) can0 69D#808DCFB04FC1FCB1
(1090000000.125057) can0 193#00080803E6E80000
(1090000000.126059) can0 20E#4E2003A0003FAFFF
(1090000000.126060) can0 522#DF7FD08E6B604EDC
(1090000000.126061) can0 366#7FDDC8020147CE78
(1090000000.126062) can0 580#000000039E080000
(1090000000.127059) can0 434#046800A2F2F30300
(1090000000.127060) can0 6E0#0000000000000000
(1090000000.127061) can0 498#87FFBFFCFB800001
(1090000000.127062) can0 230#D60008E2D4001800
(1090000000.128070) can0 153#00000004000C0004
(1090000000.129104) can0 354#1FFF400000040900
(1090000000.129105) can0 00E#205296020809758A
(1090000000.129106) can0 5E1#893FE00B0A000080
(1090000000.129107) can0 69E#0440047E1FC01502
(1090000000.129107) can0 125#90003F5F3AE36960
(1090000000.130139) can0 295#0000000000000840
(1090000000.130140) can0 662#4C20000040000000
(1090000000.130141) can0 28B#0000000000000000
(1090000000.130142) can0 19C#1210201B82002720
(1090000000.131095) can0 0D0#4A610C60F3000000
(1090000000.131096) can0 033#000798000E4007D0
(1090000000.131112) can0 274#00F209F5107C86B9
(1090000000.131113) can0 0C0#2000000000000000
(1090000000.132161) can0 0A7#2010FA24D125C0A0
(1090000000.132162) can0 1CA#3FF9FF8000000CA0
(1090000000.132163) can0 5E8#0003001C013A0000
(1090000000.132164) can0 FFF#0000000000000000
(1090000000.135099) can0 6E0#0000000000000000
(1090000000.136102) can0 66C#0080100020000020
(1090000000.136103) can0 618#FB7DBEFFF777BFDD
(1090000000.137121) can0 107#0000000000000000
(1090000000.138145) can0 FFF#0000000000000000
(1090000000.138146) can0 0BA#06980F041000050C
(1090000000.138147) can0 0D0#52610C60F2000000
(1090000000.138148) can0 2E1#0000000000000004
(1090000000.139146) can0 00E#205296020809758A
(1090000000.139147) can0 3C1#7B551FBB6E76E92E
(1090000000.139148) can0 125#90003F5F3AE34B60
(1090000000.139149) can0 354#1FFF400000040900
(1090000000.140145) can0 5E1#893FE00B0A000080
(1090000000.140146) can0 033#000790000E8007D0
(1090000000.140147) can0 162#00080003EA11F4CE
(1090000000.140148) can0 0A7#2010FA24D125C0A0
(1090000000.141161) can0 2A3#00000003FE803C00
(1090000000.141162) can0 4FD#11490A50630E4A08
(1090000000.143020) can0 0D7#0000020080000000
(1090000000.144874) can0 26E#010A00828A720A04
(1090000000.145895) can0 193#00080803E6E80000
(1090000000.145897) can0 20E#4E2003A0003F8FFF
(1090000000.145898) can0 522#DF7FD08E6AE84EDC
(1090000000.145898) can0 366#7FDDC8020147CE78
(1090000000.146916) can0 580#0000000396880000
(1090000000.146917) can0 434#000000A2F2F30300
(1090000000.146918) can0 6E0#0000000000000000
(1090000000.146919) can0 498#87FFBFFCFA800002
(1090000000.147939) can0 30A#20225000820A0A00
(1090000000.147941) can0 1C4#0000020002000000
(1090000000.147942) can0 2A4#2E8C021C040898D0
(1090000000.147943) can0 32D#00000424CC010000
(1090000000.148958) can0 354#1FFF40000003FA00
(1090000000.148963) can0 153#00000004000C0004
(1090000000.148964) can0 00E#205296020809758A
(1090000000.148965) can0 69E#0440047E1FC01502
(1090000000.149938) can0 125#90003F5F3AE32D60
(1090000000.149939) can0 5E1#893FE00B0A000080
(1090000000.149940) can0 662#4C20000040000000
(1090000000.149940) can0 28B#0000000000000000
(1090000000.149941) can0 19C#160C201B82002720
(1090000000.150941) can0 0D0#5A610C60F1000000
(1090000000.150942) can0 033#000788000EC007D0
(1090000000.150943) can0 274#00F20BF3107C86B9
(1090000000.150944) can0 0C0#2000000000000000
(1090000000.151965) can0 6FC#00000758B0B75800
(1090000000.151966) can0 0A7#2010FA24D125C0A0
(1090000000.151967) can0 239#0000007D00004180
(1090000000.151968) can0 230#D50008E2D4001A00
(1090000000.152965) can0 FFF#0000000000000000
(1090000000.155052) can0 6E0#0000000000000000
(1090000000.156071) can0 FFF#0000000000000000
(1090000000.157124) can0 107#0000000000000000
(1090000000.158147) can0 FFF#0000000000000000
(1090000000.158149) can0 295#0000000000000840
(1090000000.158150) can0 2E1#0000000000000004
(1090000000.159126) can0 00E#2052960208097590
(1090000000.159127) can0 354#1FFF40000003F280
(1090000000.159129) can0 5E1#893FE00B0A000080
(1090000000.159130) can0 125#90003F5F3AE30F60
(1090000000.160167) can0 0D0#62610C60F0000000
(1090000000.160168) can0 033#000780000F0007D0
(1090000000.160169) can0 2E2#18080D4040000118
(1090000000.160170) can0 345#050202C23C774081
(1090000000.161166) can0 430#0034478BFC8012A0
(1090000000.161168) can0 162#00080003EA11F4CE
(1090000000.161169) can0 FFF#0000000000000000
(1090000000.161170) can0 FFF#0000000000000000
(1090000000.162156) can0 0F4#9A0C010204710240
(1090000000.162157) can0 0A7#2010FA24D125C0A0
(1090000000.162158) can0 130#0001600000000000
(1090000000.162159) can0 497#0000000000000000
(1090000000.163156) can0 3C1#7B551FBBADB7692E
(1090000000.165083) can0 193#00080803E6E80000
(1090000000.166082) can0 20E#4E2003A0003FAFFF
(1090000000.166083) can0 522#DF7FD08E6A704EDC
(1090000000.166084) can0 366#7FDDC8020147CE78
(1090000000.166085) can0 580#000000038F080000
(1090000000.167103) can0 434#002000A2F2F30300
(1090000000.167105) can0 6E0#0000000000000000
(1090000000.167106) can0 498#87FFBFFCF9800003
(1090000000.167106) can0 230#D40008E2D4001C00
(1090000000.168144) can0 4E7#0000001203890000
(1090000000.169124) can0 354#1FFF40000003F280
(1090000000.169125) can0 00E#205296020809758A
(1090000000.169126) can0 153#00000004000C0004
(1090000000.169127) can0 69E#0440047E1FC01502
(1090000000.169128) can0 125#90003F5F3AE2F160
(1090000000.170145) can0 FFF#0000000000000000
(1090000000.170147) can0 5E1#893FE00B0A000080
(1090000000.170148) can0 662#4C20000040000000
(1090000000.170149) can0 684#28DA8019417C501E
(1090000000.171145) can0 636#24A40000F1003000
(1090000000.171146) can0 2D7#100060D800000008
(1090000000.171147) can0 28B#0000000000000000
(1090000000.171148) can0 19C#1A08201B82002720
(1090000000.172127) can0 0D0#6A610C60EF000000
(1090000000.172128) can0 033#000778000F4007D0
(1090000000.172129) can0 274#00F20DF1107C86B9
(1090000000.172130) can0 0C0#2000000000000000
(1090000000.173181) can0 0A7#2010FA24D125C0A0
(1090000000.173182) can0 2D2#0000100000000000
(1090000000.173183) can0 FFF#0000000000000000
(1090000000.173184) can0 3E4#0134000005000000
(1090000000.174186) can0 65C#4011D27750000000
(1090000000.174187) can0 577#0000080000000146
(1090000000.175167) can0 6E0#0000000000000000
(1090000000.176938) can0 107#0000000000000000
(1090000000.177960) can0 FFF#0000000000000000
(1090000000.177977) can0 0BA#06980F041000050C
(1090000000.177978) can0 0D0#72610C60EE000000
(1090000000.178978) can0 2E1#0000000000000004
(1090000000.178979) can0 00E#205296020809757E
(1090000000.178980) can0 354#1FFF40000003E380
(1090000000.178999) can0 125#90003F5F3AE2D360
(1090000000.180000) can0 5E1#893FE00B0A000080
(1090000000.180001) can0 033#000770000F8007D0
(1090000000.180002) can0 162#00080003EA11F4CE
(1090000000.180018) can0 0A7#2010FA24D125C0A0
(1090000000.185105) can0 193#00080803E6E80000
(1090000000.186124) can0 20E#4E2003A0003FCFFF
(1090000000.186125) can0 522#DF7FD08E69F84E9C
(1090000000.186141) can0 366#7FDDC8020147CE78
(1090000000.186143) can0 580#0000000387880000
(1090000000.187145) can0 434#005680A2F2F30300
(1090000000.187146) can0 6E0#0000000000000000
(1090000000.187147) can0 2B4#04410500000BB800
(1090000000.187148) can0 498#87FFBFFCF8800004
(1090000000.188132) can0 464#0002400000901697
(1090000000.188133) can0 230#D30008E2D4001E00
(1090000000.188134) can0 3C1#7B551FBBECB8292E
(1090000000.188135) can0 2C1#01F40FC7CB1E2DC0
(1090000000.189132) can0 00E#2052D60208097590
(1090000000.189133) can0 354#1FFF40000003E380
(1090000000.189134) can0 69E#0440047E1FC01522
(1090000000.189135) can0 125#90003F5F3AE2B560
(1090000000.190153) can0 153#00000004000C0004
(1090000000.190154) can0 5E1#893FE00B0A000080
(1090000000.190155) can0 295#0000000000000840
(1090000000.190156) can0 662#4C20000040000000
(1090000000.191159) can0 28B#0000000000000000
(1090000000.191161) can0 19C#1E04201B82002720
(1090000000.191162) can0 0D0#7A610C60ED000000
(1090000000.191177) can0 033#000768000FC007D0
(1090000000.192199) can0 274#00F20FEF107C86B9
(1090000000.192201) can0 0C0#2000000000000000
(1090000000.192202) can0 0A7#2010FA24D125C0A0
(1090000000.192203) can0 5B3#0400000000006800
(1090000000.193229) can0 407#40015FF016401CA0
(1090000000.193248) can0 FFF#0000000000000000
(1090000000.193249) can0 4FD#11490A50630E4A08
(1090000000.195125) can0 6E0#0000000000000000
(1090000000.196999) can0 107#0000000000000000
(1090000000.198035) can0 FFF#0000000000000000
(1090000000.198037) can0 32D#00000424CC010000
(1090000000.198038) can0 0D0#02610C60FC000000
(1090000000.199016) can0 2E1#0000000000000004
(1090000000.199017) can0 00E#2052D6020809758A
(1090000000.199018) can0 354#1FFF40000003D480
(1090000000.199019) can0 125#90003F5F3AE29760
(1090000000.200044) can0 5E1#893FE00B0A000080
(1090000000.200045) can0 033#0007E0000C0007D0
(1090000000.200046) can0 162#00080003EA11F4CE
(1090000000.200047) can0 0A7#2010FA24D125C0A0
(1090000000.201250) can0 0F8#7EDFF4FD49FBA7B8
(1090000000.205081) can0 193#00080803E6E80000
(1090000000.206087) can0 20E#4E2003A0003FCFFF
(1090000000.206088) can0 522#DF7FD08E71004EDC
(1090000000.206089) can0 366#7FDDC8020147CE78
(1090000000.206090) can0 580#00000003F8080000
(1090000000.207081) can0 434#007780A2F2F30300
(1090000000.207083) can0 6E0#0000000000000000
(1090000000.207084) can0 498#87FFBFFCF7800005
(1090000000.207098) can0 230#E20008E2D4000000
(1090000000.208148) can0 153#00000004000C0004
(1090000000.208149) can0 354#1FFF40000003CD00
(1090000000.209162) can0 00E#2052960208097596
(1090000000.209163) can0 5E1#893FE00B0A000080
(1090000000.209164) can0 69E#0440047E1FC01502
(1090000000.209165) can0 125#90003F5F3AE27960
(1090000000.210184) can0 662#4C20000040000000
(1090000000.210185) can0 28B#0000000000000000
(1090000000.210186) can0 19C#0220201B82002720
(1090000000.210187) can0 0D0#0A610C60FB000000
(1090000000.211182) can0 033#0007D8000C4007D0
(1090000000.211184) can0 274#00F201FD107C86B9
(1090000000.211185) can0 0C0#2000000000000000
(1090000000.211186) can0 0A7#2010FA24D125C0A0
(1090000000.212202) can0 03D#00002A8000000000
(1090000000.212203) can0 FFF#0000000000000000
(1090000000.212204) can0 4CB#8000000000000000
(1090000000.213224) can0 280#18E0027000000000
(1090000000.213225) can0 3C1#7B551FBBAC78A92E
(1090000000.213226) can0 03C#0000040031000000
(1090000000.214207) can0 207#24046048129E94D0
(1090000000.214208) can0 4C9#019955820D00F64B
(1090000000.214224) can0 1D6#020B808030244080
(1090000000.215227) can0 6E0#0000000000000000
(1090000000.216971) can0 107#0000000000000000
(1090000000.217998) can0 FFF#0000000000000000
(1090000000.218000) can0 0BA#06980F041000050C
(1090000000.218001) can0 295#0000000000000840
(1090000000.218999) can0 2E1#0000000000000004
(1090000000.219000) can0 00E#2052960208097590
(1090000000.219001) can0 354#1FFF40000003CD00
(1090000000.219002) can0 5E1#893FE00B0A000080
(1090000000.220021) can0 125#90003F5F3AE25B60
(1090000000.220022) can0 0D0#12610C60FA000000
(1090000000.220023) can0 033#0007D0000C8007D0
(1090000000.220024) can0 162#00080003EA11F4CE
(1090000000.221020) can0 0A7#2010FA24D125C0A0
(1090000000.221021) can0 577#0000080000000146
(1090000000.221022) can0 585#0040000000020018
(1090000000.225094) can0 193#00080803E6E80000
(1090000000.226092) can0 20E#4E2003A0003FCFFF
(1090000000.226093) can0 522#DF7FD08E70884E9C
(1090000000.226094) can0 366#7FDDC8020147CE78
(1090000000.226095) can0 580#00000003F0880000
(1090000000.227131) can0 434#0088E0A2F2F30300
(1090000000.227133) can0 6E0#0000000000000000
(1090000000.227134) can0 498#87FFBFFCF6800006
(1090000000.227135) can0 230#E10008E2D4000200
(1090000000.228115) can0 153#00000004000C0004
(1090000000.228116) can0 354#1FFF40000003BE00
(1090000000.229169) can0 00E#2052D60208097590
(1090000000.229170) can0 5E1#893FE00B0A000080
(1090000000.229171) can0 69E#0440047E1FC01522
(1090000000.229172) can0 125#90003F5F3AE23D60
(1090000000.230167) can0 662#4C20000040000000
(1090000000.230168) can0 28B#0000000000000000
(1090000000.230169) can0 19C#061C201B82002720
(1090000000.230170) can0 0D0#1A610C60F9000000
(1090000000.231188) can0 033#0007C8000CC007D0
(1090000000.231189) can0 274#00F203FB107C86B9
(1090000000.231190) can0 0C0#2000000000000000
(1090000000.231191) can0 0A7#2010FA24D125C0A0
(1090000000.232191) can0 1CA#3FF9FF8000000CA0
(1090000000.232192) can0 FFF#0000000000000000
(1090000000.235071) can0 6E0#0000000000000000
(1090000000.236096) can0 66C#0080100020000020
(1090000000.237122) can0 107#0000000000000000
(1090000000.238146) can0 FFF#0000000000000000
(1090000000.238147) can0 30A#20225000820C0A00
(1090000000.238148) can0 3C1#7B551FBC2B39692E
(1090000000.238149) can0 2E1#0000000000000004
(1090000000.239109) can0 00E#2052D60208097590
(1090000000.239110) can0 354#1FFF40000003B680
(1090000000.239111) can0 5E1#893FE00B0A000080
(1090000000.239112) can0 125#90003F5F3AE21F60
(1090000000.240168) can0 0D0#22610C60F8000000
(1090000000.240169) can0 033#0007C0000D0007D0
(1090000000.240170) can0 162#00080003EA11F4CE
(1090000000.240185) can0 0A7#2010FA24D125C0A0
(1090000000.241187) can0 2A3#00000003FE803C00
(1090000000.241188) can0 4FD#11520A506F0FCA08
(1090000000.243025) can0 0D7#0000020080000000
(1090000000.245106) can0 193#00080803E6E80000
(1090000000.246104) can0 20E#4E2003A0003FAFFF
(1090000000.246105) can0 26E#010A00828A720A04
(1090000000.246106) can0 522#DF7FD08E70104EDC
(1090000000.246107) can0 366#7FDDC8020147CE78
(1090000000.247125) can0 580#00000003E9080000
(1090000000.247126) can0 434#00A8E0A2F2F30300
(1090000000.247127) can0 6E0#0000000000000000
(1090000000.247128) can0 498#87FFBFFCF5800007
(1090000000.248146) can0 32D#00000424CC010000
(1090000000.248147) can0 230#E00008E2D4000400
(1090000000.248148) can0 153#00000004000C0004
(1090000000.248149) can0 354#1FFF40000003B680
(1090000000.249146) can0 00E#2052960208097590
(1090000000.249147) can0 5E1#893FE00B0A000080
(1090000000.249148) can0 69E#0440047E1FC01502
(1090000000.249149) can0 125#90003F5F3AE3E160
(1090000000.250168) can0 295#0000000000000840
(1090000000.250169) can0 662#4C20000040000000
(1090000000.250170) can0 28B#0000000000000000
(1090000000.250171) can0 19C#0A18201B82002720
(1090000000.251132) can0 0D0#2A610C60F7000000
(1090000000.251133) can0 033#0007B8000D4007D0
(1090000000.251135) can0 274#00F205F9107C86B9
(1090000000.251136) can0 0C0#2000000000000000
(1090000000.252187) can0 6FC#00000758B0B75800
(1090000000.252189) can0 0A7#2010FA24E125C0A0
(1090000000.252208) can0 239#0000007D00004180
(1090000000.252209) can0 FFF#0000000000000000
(1090000000.255086) can0 6E0#0000000000000000
(1090000000.256103) can0 FFF#0000000000000000
(1090000000.257123) can0 107#0000000000000000
(1090000000.258128) can0 FFF#0000000000000000
(1090000000.258129) can0 0BA#06980F041000050C
(1090000000.258130) can0 0D0#32610C60F6000000
(1090000000.258131) can0 2E1#0000000000000004
(1090000000.259112) can0 00E#2052D6020809758A
(1090000000.259114) can0 354#1FFF40000003A780
(1090000000.259115) can0 125#90003F5F3AE3C360
(1090000000.259115) can0 5E1#893FE00B0A000080
(1090000000.260133) can0 033#0007B0000D8007D0
(1090000000.260134) can0 2E2#18080D4040000118
(1090000000.260135) can0 345#050202C23C774081
(1090000000.260136) can0 430#0034478BFC8012A0
(1090000000.261131) can0 162#00080003EA11F4CE
(1090000000.261132) can0 FFF#0000000000000000
(1090000000.261133) can0 FFF#0000000000000000
(1090000000.261134) can0 0F4#9A0C010204710240
(1090000000.262151) can0 0A7#2010FA24E125C0A0
(1090000000.262153) can0 130#0001600000000000
(1090000000.262154) can0 497#0000000000000000
(1090000000.263173) can0 3C1#7B551FBC6A79E92E
(1090000000.265099) can0 193#00080803E6E80000
(1090000000.266119) can0 20E#4E2003A0003FAFFF
(1090000000.266120) can0 522#DF7FD08E6F984E9C
(1090000000.266121) can0 366#7FDDC8020147CE78
(1090000000.266122) can0 580#00000003E1880000
(1090000000.267164) can0 434#00C720A2F2F30300
(1090000000.267165) can0 6E0#0000000000000000
(1090000000.267166) can0 2B4#04410600000BB800
(1090000000.267167) can0 498#87FFBFFCF4800008
(1090000000.268183) can0 230#DF0008E2D4000600
(1090000000.268184) can0 4E7#0000001203890000
(1090000000.268185) can0 354#1FFF40000003A780
(1090000000.269182) can0 00E#2052D60208097596
(1090000000.269183) can0 153#00000004000C0004
(1090000000.269184) can0 69E#0440047E1FC01502
(1090000000.269185) can0 125#90003F5F3AE3A560
(1090000000.270188) can0 FFF#0000000000000000
(1090000000.270189) can0 5E1#893FE00B0A000080
(1090000000.270190) can0 662#4C20000040000000
(1090000000.270191) can0 684#28DA8019417C501E
(1090000000.271188) can0 636#24A40000F1003000
(1090000000.271189) can0 2D7#100060D800000008
(1090000000.271190) can0 28B#0000000000000000
(1090000000.271191) can0 19C#0E14201B82002720
(1090000000.272177) can0 0D0#3A610C60F5000000
(1090000000.272178) can0 033#0007A8000DC007D0
(1090000000.272179) can0 274#00F207F7107C86B9
(1090000000.272180) can0 0C0#2000000000000000
(1090000000.273228) can0 0A7#2010FA24D125C0A0
(1090000000.273230) can0 2D2#0000180000000000
(1090000000.273231) can0 55C#101C000043863000
(1090000000.273232) can0 FFF#0000000000000000
(1090000000.273232) can0 3E4#0134000005000000
(1090000000.274212) can0 65C#4011D27750000000
(1090000000.274213) can0 577#0000080000000146
(1090000000.275210) can0 6E0#0000000000000000
(1090000000.276998) can0 107#0000000000000000
(1090000000.278017) can0 FFF#0000000000000000
(1090000000.278019) can0 295#0000000000000840
(1090000000.279042) can0 2E1#0000000000000004
(1090000000.279043) can0 00E#2052D6020809758A
(1090000000.279044) can0 354#1FFF400000041080
(1090000000.279045) can0 5E1#893FE00B0A000080
(1090000000.280019) can0 125#90003F5F3AE38760
(1090000000.280020) can0 0D0#42610C60F4000000
(1090000000.280037) can0 033#0007A0000E0007D0
(1090000000.280038) can0 162#00080003EA11F4CE
(1090000000.280039) can0 0A7#2010FA24D125C0A0
(1090000000.285103) can0 193#00080803E6E80000
(1090000000.286104) can0 20E#4E2003A0003FCFFF
(1090000000.286121) can0 522#DF7FD08E6F204EDC
(1090000000.286122) can0 366#7FDDC8020147CE78
(1090000000.286123) can0 580#00000003DA080000
(1090000000.287121) can0 434#00E700A2F2F30300
(1090000000.287122) can0 6E0#0000000000000000
(1090000000.287123) can0 498#87FFBFFCF3800009
(1090000000.287124) can0 464#0002400000901598
(1090000000.288125) can0 230#DE0008E2D4000800
(1090000000.288126) can0 3C1#7B551FBBEA3AA92E
(1090000000.288127) can0 354#1FFF400000040900
(1090000000.289146) can0 00E#2052D60208097590
(1090000000.289147) can0 153#00000004000C0004
(1090000000.289148) can0 69E#0440047E1FC01522
(1090000000.289149) can0 125#90003F5F3AE36960
(1090000000.290146) can0 5E1#893FE00B0A000080
(1090000000.290147) can0 662#4C20000040000000
(1090000000.290163) can0 28B#0000000000000000
(1090000000.290164) can0 19C#1210201B82002720
(1090000000.291166) can0 0D0#4A610C60F3000000
(1090000000.291168) can0 033#000798000E4007D0
(1090000000.291169) can0 274#00F209F5107C86B9
(1090000000.291170) can0 0C0#2000000000000000
(1090000000.292167) can0 0A7#2010FA24D125C0A0
(1090000000.292168) can0 5B3#0400000000006800
(1090000000.292169) can0 407#40015FF016401CA0
(1090000000.292170) can0 FFF#0000000000000000
(1090000000.293187) can0 4FD#114A0A50630E4A08
(1090000000.293188) can0 2C1#01F40FC7CA9E1BD4
(1090000000.295077) can0 6E0#0000000000000000
(1090000000.296594) can0 2B4#04410600000BB800
(1090000000.297611) can0 107#0000000000000000
(1090000000.298634) can0 FFF#0000000000000000
(1090000000.298635) can0 2E1#0000000000000004
(1090000000.298635) can0 354#1FFF400000040900
(1090000000.298636) can0 00E#205296020809758A
(1090000000.299643) can0 5E1#893FE00B0A000080
(1090000000.299644) can0 125#90003F5F3AE34B60
(1090000000.299645) can0 0D0#52610C60F2000000
(1090000000.299646) can0 033#000790000E8007D0
(1090000000.300639) can0 0BA#06980F041000050C
(1090000000.300641) can0 162#00080003EA11F4CE
(1090000000.300642) can0 0A7#2010FA24D125C0A0
(1090000000.300643) can0 51B#2909183F01060801
(1090000000.300644) can0 32D#00000424CC010000
(1090000000.301682) can0 FFF#0000000000000000
(1090000000.305077) can0 193#00080803E6E80000
(1090000000.306098) can0 20E#4E2003A0003FCFFF
(1090000000.306099) can0 522#DF7FD08E6EA84EDC
(1090000000.306100) can0 366#7FDDC8020147CE78
(1090000000.306101) can0 580#00000003D2880000
(1090000000.307071) can0 434#0105A0A2F2F30300
(1090000000.307072) can0 6E0#0000000000000000
(1090000000.307073) can0 498#87FFBFFCF280000A
(1090000000.307074) can0 230#DD0008E2D4000A00
(1090000000.308090) can0 153#00000004000C0004
(1090000000.309113) can0 354#1FFF40000003FA00
(1090000000.309114) can0 00E#205296020809758A
(1090000000.309115) can0 5E1#893FE00B0A000080
(1090000000.309115) can0 69E#0440047E1FC01522
(1090000000.309116) can0 125#90003F5F3AE32D60
(1090000000.310162) can0 295#0000000000000840
(1090000000.310163) can0 662#4C20000040000000
(1090000000.310164) can0 28B#0000000000000000
(1090000000.310165) can0 19C#160C201B82002720
(1090000000.311142) can0 0D0#5A610C60F1000000
(1090000000.311143) can0 033#000788000EC007D0
(1090000000.311144) can0 274#00F20BF3107C86B9
(1090000000.311145) can0 0C0#2000000000000000
(1090000000.312142) can0 0A7#2010FA24D125C0A0
(1090000000.312143) can0 03D#00002A8000000000
(1090000000.312144) can0 FFF#0000000000000000
(1090000000.313151) can0 3C1#7B551FBBE9BB292E
(1090000000.313152) can0 03C#0000040031000000
(1090000000.314200) can0 207#24046048129E94D0
(1090000000.314202) can0 4C9#019915820D00F64B
(1090000000.314203) can0 1D6#020F828030244080
(1090000000.315186) can0 6E0#0000000000000000
(1090000000.316979) can0 107#0000000000000000
(1090000000.317999) can0 FFF#0000000000000000
(1090000000.318001) can0 0D0#62610C60F0000000
(1090000000.319035) can0 2E1#0000000000000004
(1090000000.319036) can0 00E#2052D6020809758A
(1090000000.319037) can0 354#1FFF40000003F280
(1090000000.319038) can0 125#90003F5F3AE30F60
(1090000000.320057) can0 5E1#893FE00B0A000080
(1090000000.320058) can0 033#000780000F0007D0
(1090000000.320059) can0 162#00080003EA11F4CE
(1090000000.320060) can0 0A7#2010FA24D125C0A0
(1090000000.321009) can0 577#0000080000000146
(1090000000.321010) can0 585#0040000000020018
(1090000000.325045) can0 193#00080803E6E80000
(1090000000.326083) can0 20E#4E2003A0003FAFFF
(1090000000.326084) can0 522#DF7FD08E6E304EDC
(1090000000.326085) can0 366#7FDDC8020147CE78
(1090000000.326086) can0 580#00000003CB080000
(1090000000.327104) can0 434#012620A2F2F30300
(1090000000.327105) can0 6E0#0000000000000000
(1090000000.327106) can0 498#87FFBFFCF180000B
(1090000000.327107) can0 230#DC0008E2D4000C00
(1090000000.328124) can0 153#00000004000C0004
(1090000000.329125) can0 354#1FFF40000003F280
(1090000000.329126) can0 00E#2052D6020809758A
(1090000000.329127) can0 5E1#893FE00B0A000080
(1090000000.329128) can0 69E#0440047E1FC01502
(1090000000.329129) can0 125#90003F5F3AE2F160
(1090000000.330146) can0 662#4C20000040000000
(1090000000.330147) can0 28B#0000000000000000
(1090000000.330148) can0 19C#1A08201B82002720
(1090000000.330152) can0 0D0#6A610C60EF000000
(1090000000.331144) can0 033#000778000F4007D0
(1090000000.331145) can0 274#00F20DF1107C86B9
(1090000000.331146) can0 0C0#2000000000000000
(1090000000.331147) can0 0A7#2010FA24D125C0A0
(1090000000.332131) can0 1CA#3FF9FF8000000CA0
(1090000000.332135) can0 FFF#0000000000000000
(1090000000.335062) can0 6E0#0000000000000000
(1090000000.336104) can0 66C#0080100020000020
(1090000000.337103) can0 107#0000000000000000
(1090000000.338125) can0 FFF#0000000000000000
(1090000000.338127) can0 0BA#06980F441000050C
(1090000000.338128) can0 3C1#7B551FBC28BBE92E
(1090000000.338129) can0 2E1#0000000000000004
(1090000000.339125) can0 354#1FFF40000003E380
(1090000000.339127) can0 00E#2052960208097590
(1090000000.339128) can0 5E1#893FE00B0A000080
(1090000000.339129) can0 125#90003F5F3AE2D360
(1090000000.340129) can0 295#0000000000000840
(1090000000.340130) can0 0D0#72610C60EE000000
(1090000000.340131) can0 033#000770000F8007D0
(1090000000.340132) can0 162#00080003EA11F4CE
(1090000000.341139) can0 0A7#2010FA24D125C0A0
(1090000000.341140) can0 2A3#00000003FE803C00
(1090000000.341142) can0 4FD#114B0A50650E4A08
(1090000000.343013) can0 0D7#0000020080000000
(1090000000.345086) can0 193#00080803E6E80000
(1090000000.346105) can0 20E#4E2003A0003FAFFF
(1090000000.346106) can0 522#DF7FD08E6DB84EDC
(1090000000.346107) can0 366#7FDDC8020147CE78
(1090000000.346108) can0 26E#010A00828A720A04
(1090000000.347104) can0 580#00000003C3880000
(1090000000.347105) can0 434#014680A2F2F30300
(1090000000.347106) can0 6E0#0000000000000000
(1090000000.347107) can0 498#87FFBFFCF080000C
(1090000000.348145) can0 32D#00000424CC010000
(1090000000.348146) can0 230#DB0008E2D4000E00
(1090000000.348147) can0 153#00000004000C0004
(1090000000.349167) can0 354#1FFF40000003E380
(1090000000.349168) can0 00E#2052D6020809758A
(1090000000.349169) can0 5E1#893FE00B0A000080
(1090000000.349170) can0 69E#0440047E1FC01522
(1090000000.349171) can0 125#90003F5F3AE2B560
(1090000000.350167) can0 662#4C20000040000000
(1090000000.350168) can0 28B#0000000000000000
(1090000000.350169) can0 19C#1E04201B82002720
(1090000000.350170) can0 0D0#7A610C60ED000000
(1090000000.351153) can0 033#000768000FC007D0
(1090000000.351154) can0 274#00F20FEF107C86B9
(1090000000.351155) can0 0C0#2000000000000000
(1090000000.351156) can0 6FC#00000758F0B75800
(1090000000.352188) can0 0A7#2010FA24D125C0A0
(1090000000.352189) can0 239#0000007D00004180
(1090000000.352190) can0 FFF#0000000000000000
(1090000000.355085) can0 6E0#0000000000000000
(1090000000.356071) can0 FFF#0000000000000000
(1090000000.357075) can0 107#0000000000000000
(1090000000.358124) can0 FFF#0000000000000000
(1090000000.358125) can0 0D0#02610C60FC000000
(1090000000.359120) can0 2E1#0000000000000004
(1090000000.359121) can0 00E#2052960208097590
(1090000000.359122) can0 354#1FFF40000003D480
(1090000000.359123) can0 125#90003F5F3AE29760
(1090000000.359124) can0 5E1#893FE00B0A000080
(1090000000.360146) can0 033#0007E0000C0007D0
(1090000000.360148) can0 2E2#18080D4040000118
(1090000000.360149) can0 345#050202C23C774081
(1090000000.360150) can0 430#0034478BFC8012A0
(1090000000.361168) can0 162#00080003EA11F4CE
(1090000000.361169) can0 0A7#2010FA24D125C0A0
(1090000000.361170) can0 FFF#0000000000000000
(1090000000.361171) can0 FFF#0000000000000000
(1090000000.362145) can0 0F4#9A0C010204710240
(1090000000.362146) can0 130#0001600000000000
(1090000000.362147) can0 497#0000000000000000
(1090000000.362148) can0 419#0A9B464D045FC2D7
(1090000000.363157) can0 3C1#7B551FBBE87C692E
(1090000000.365084) can0 193#00080803E6E80000
(1090000000.366099) can0 20E#4E2003A0003FAFFF
(1090000000.366100) can0 522#DF7FD08E6D404EDC
(1090000000.366101) can0 366#7FDDC8020147CE78
(1090000000.366102) can0 580#00000003BC080000
(1090000000.367073) can0 434#016860A2F2F30300
(1090000000.367074) can0 6E0#0000000000000000
(1090000000.367075) can0 498#87FFBFFCEF80000D
(1090000000.367076) can0 230#DA0008E2CC001000
(1090000000.368093) can0 4E7#0000001203890000
(1090000000.368094) can0 354#1FFF40000003CD00
(1090000000.369119) can0 00E#205296020809758A
(1090000000.369136) can0 153#00000004000C0004
(1090000000.369137) can0 69E#0440047E1FC01522
(1090000000.369138) can0 125#90003F5F3AE27960
(1090000000.370141) can0 FFF#0000000000000000
(1090000000.370142) can0 5E1#893FE00B0A000080
(1090000000.370143) can0 295#0000000000000840
(1090000000.370144) can0 662#4C20000040000000
(1090000000.371131) can0 684#28DA8019417C501E
(1090000000.371132) can0 636#24A40000F1003000
(1090000000.371133) can0 2D7#100060D800000008
(1090000000.371137) can0 28B#0000000000000000
(1090000000.372187) can0 19C#0220201B82002720
(1090000000.372188) can0 0D0#0A610C60FB000000
(1090000000.372189) can0 033#0007D8000C4007D0
(1090000000.372190) can0 274#00F201FD107C86B9
(1090000000.373157) can0 0C0#2000000000000000
(1090000000.373158) can0 0A7#2010FA24D125C0A0
(1090000000.373159) can0 2D2#0000200000000000
(1090000000.373160) can0 FFF#0000000000000000
(1090000000.374154) can0 3E4#0134000005000000
(1090000000.374155) can0 65C#4011D27750000000
(1090000000.374156) can0 577#0000080000000146
(1090000000.375173) can0 6E0#0000000000000000
(1090000000.376990) can0 107#0000000000000000
(1090000000.378007) can0 FFF#0000000000000000
(1090000000.378008) can0 0BA#06980F441000050C
(1090000000.378009) can0 0D0#12610C60FA000000
(1090000000.379005) can0 2E1#0000000000000004
(1090000000.379006) can0 00E#2052D60208097590
(1090000000.379007) can0 354#1FFF40000003CD00
(1090000000.379008) can0 125#90003F5F3AE25B60
(1090000000.380022) can0 5E1#893FE00B0A000080
(1090000000.380023) can0 033#0007D0000C8007D0
(1090000000.380024) can0 162#00080003EA11F4CE
(1090000000.380025) can0 0A7#2010FA24D125C0A0
(1090000000.385165) can0 193#00080803E6E80000
(1090000000.386167) can0 20E#4E2003A0003FAFFF
(1090000000.386168) can0 522#DF7FD08E6CC84EDC
(1090000000.386169) can0 366#7FDDC8020147CE78
(1090000000.386170) can0 580#00000003B4880000
(1090000000.387167) can0 434#0186C0A2F2F30300
(1090000000.387168) can0 6E0#0000000000000000
(1090000000.387169) can0 2B4#04410600000BB800
(1090000000.387170) can0 498#87FFBFFCEE80000E
(1090000000.388188) can0 464#0002400000901499
(1090000000.388189) can0 230#D90008E2D4001200
(1090000000.388190) can0 3C1#7B551FBC277D292E
(1090000000.388191) can0 354#1FFF40000003BE00
(1090000000.389180) can0 00E#205296020809758A
(1090000000.389181) can0 153#00000004000C0004
(1090000000.389182) can0 69E#0440047E1FC01522
(1090000000.389183) can0 125#90003F5F3AE23D60
(1090000000.390197) can0 5E1#893FE00B0A000080
(1090000000.390198) can0 662#4C20000040000000
(1090000000.390198) can0 28B#0000000000000000
(1090000000.390199) can0 19C#061C201B82002720
(1090000000.391194) can0 0D0#1A610C60F9000000
(1090000000.391195) can0 033#0007C8000CC007D0
(1090000000.391196) can0 274#00F203FB107C86B9
(1090000000.391197) can0 0C0#2000000000000000
(1090000000.391198) can0 0A7#2010FA24D125C0A0
(1090000000.392213) can0 5B3#0400000000006800
(1090000000.392215) can0 407#40015FF016401CA0
(1090000000.392216) can0 4FD#11460A505F0DCA08
(1090000000.392217) can0 FFF#0000000000000000
(1090000000.395120) can0 6E0#0000000000000000
(1090000000.396984) can0 107#0000000000000000
(1090000000.398042) can0 FFF#0000000000000000
(1090000000.398059) can0 1C4#0000020002400000
(1090000000.398060) can0 2A4#2020031C040898D0
(1090000000.398061) can0 2E1#0000000000000004
(1090000000.399064) can0 2C1#01F3CFC7CB9E05EA
(1090000000.399066) can0 00E#2052960208097590
(1090000000.399082) can0 354#1FFF40000003B680
(1090000000.399083) can0 125#90003F5F3AE21F60
(1090000000.400065) can0 5E1#893FE00B0A000080
(1090000000.400066) can0 295#0000000000000840
(1090000000.400067) can0 0D0#22610C60F8000000
(1090000000.400068) can0 033#0007C0000D0007D0
(1090000000.401101) can0 162#00080003EA11F4CE
(1090000000.401102) can0 0A7#2010FA24D125C0A0
(1090000000.401103) can0 FFF#0000000000000000
(1090000000.401104) can0 32D#00000424CC010000
(1090000000.405103) can0 193#00080803E6E80000
(1090000000.406104) can0 20E#4E2003A0003FAFFF
(1090000000.406105) can0 522#DF7FD08E6C504EDC
(1090000000.406106) can0 366#7FDDC8020147CE78
(1090000000.406107) can0 580#00000003AD080000
(1090000000.407090) can0 434#01A600A2F2F30300
(1090000000.407091) can0 6E0#0000000000000000
(1090000000.407092) can0 498#87FFBFFCED80000F
(1090000000.407108) can0 230#D80008E2D4001400
(1090000000.408111) can0 153#00000004000C0004
(1090000000.408112) can0 354#1FFF40000003B680
(1090000000.409134) can0 00E#205296020809758A
(1090000000.409150) can0 5E1#893FE00B0A000080
(1090000000.409151) can0 69E#0440047E1FC01502
(1090000000.409152) can0 125#90003F5F3AE3E160
(1090000000.410163) can0 662#4C20000040000000
(1090000000.410164) can0 28B#0000000000000000
(1090000000.410165) can0 19C#0A18201B82002720
(1090000000.410166) can0 0D0#2A610C60F7000000
(1090000000.411209) can0 033#0007B8000D4007D0
(1090000000.411210) can0 274#00F205F9107C86B9
(1090000000.411211) can0 0C0#2000000000000000
(1090000000.411212) can0 0A7#2010FA24D125C0A0
(1090000000.412191) can0 03D#00002A8000000000
(1090000000.412192) can0 FFF#0000000000000000
(1090000000.413210) can0 4CB#8000000000000000
(1090000000.413231) can0 280#18E0027000000000
(1090000000.413232) can0 3C1#7B551FBC66BDA92E
(1090000000.413233) can0 03C#0000040031000000
(1090000000.414229) can0 207#24046048129E94D0
(1090000000.414230) can0 4C9#019915820D00F64B
(1090000000.414231) can0 1D6#020B808030244080
(1090000000.415249) can0 6E0#0000000000000000
(1090000000.417083) can0 107#0000000000000000
(1090000000.418083) can0 FFF#0000000000000000
(1090000000.418084) can0 0BA#06980F441000050C
(1090000000.418085) can0 0D0#32610C60F6000000
(1090000000.419105) can0 2E1#0000000000000004
(1090000000.419106) can0 00E#2052D6020809758A
(1090000000.419107) can0 354#1FFF40000003A780
(1090000000.419108) can0 125#90003F5F3AE3C360
(1090000000.419109) can0 5E1#893FE00B0A000080
(1090000000.420104) can0 033#0007B0000D8007D0
(1090000000.420105) can0 162#00080003EA11F4CE
(1090000000.420106) can0 0A7#2010FA24D125C0A0
(1090000000.420107) can0 55C#101C000043863000
(1090000000.421124) can0 585#0040000000020018
(1090000000.421125) can0 577#0000080000000146
(1090000000.425114) can0 193#00080803E6E80000
(1090000000.426136) can0 20E#4E2003A0003FCFFF
(1090000000.426138) can0 522#DF7FD08E6BD84E9C
(1090000000.426139) can0 366#7FDDC8020147CE78
(1090000000.426140) can0 580#00000003A5880000
(1090000000.427093) can0 434#01C640A2F2F30300
(1090000000.427094) can0 6E0#0000000000000000
(1090000000.427095) can0 498#87FFBFFCFC800000
(1090000000.427096) can0 230#D70008E2D4001600
(1090000000.428113) can0 153#00000004000C0004
(1090000000.428114) can0 354#1FFF40000003A780
(1090000000.429134) can0 00E#2052D60208097590
(1090000000.429150) can0 5E1#893FE00B0A000080
(1090000000.429151) can0 69E#0440047E1FC01522
(1090000000.429152) can0 125#90003F5F3AE3A560
(1090000000.430152) can0 295#0000000000000840
(1090000000.430153) can0 662#4C20000040000000
(1090000000.430154) can0 28B#0000000000000000
(1090000000.430155) can0 19C#0E14201B82002720
(1090000000.431189) can0 0D0#3A610C60F5000000
(1090000000.431190) can0 033#0007A8000DC007D0
(1090000000.431191) can0 274#00F207F7107C86B9
(1090000000.431192) can0 0C0#2000000000000000
(1090000000.432191) can0 0A7#2010FA24D125C0A0
(1090000000.432192) can0 1CA#3FF9FF8000000CA0
(1090000000.432193) can0 FFF#0000000000000000
(1090000000.435128) can0 6E0#0000000000000000
(1090000000.436124) can0 66C#0080100020000020
(1090000000.437134) can0 107#0000000000000000
(1090000000.438146) can0 FFF#0000000000000000
(1090000000.438147) can0 3C1#7B551FBBA6BE692E
(1090000000.438148) can0 2E1#0000000000000004
(1090000000.439167) can0 354#1FFF400000041080
(1090000000.439168) can0 00E#2052D6020809758A
(1090000000.439169) can0 5E1#893FE00B0A000080
(1090000000.439170) can0 125#90003F5F3AE38760
(1090000000.440189) can0 0D0#42610C60F4000000
(1090000000.440190) can0 033#0007A0000E0007D0
(1090000000.440191) can0 162#00080003EA11F4CE
(1090000000.440192) can0 0A7#2010FA24D125C0A0
(1090000000.440193) can0 2A3#00000003FE803C00
(1090000000.441210) can0 4FD#114A0A50630E4A08
(1090000000.442991) can0 0D7#0000020080000000
(1090000000.445098) can0 193#00080803E6E80000
(1090000000.446110) can0 20E#4E2003A0003FCFFF
(1090000000.446112) can0 522#DF7FD08E6B604EDC
(1090000000.446113) can0 366#7FDDC8020147CE78
(1090000000.446114) can0 580#000000039E080000
(1090000000.447128) can0 26E#010A00828A6A0A04
(1090000000.447129) can0 434#01E5A0A2F2F30300
(1090000000.447130) can0 6E0#0000000000000000
(1090000000.447131) can0 498#87FFBFFCFB800001
(1090000000.448147) can0 32D#00000424CC010000
(1090000000.448148) can0 230#D60008E2D4001800
(1090000000.448149) can0 153#00000004000C0004
(1090000000.448150) can0 354#1FFF400000040900
(1090000000.449168) can0 00E#2052D6020809758A
(1090000000.449169) can0 5E1#893FE00B0A000080
(1090000000.449170) can0 69E#0440047E1FC01502
(1090000000.449171) can0 125#90003F5F3AE36960
(1090000000.450168) can0 662#4C20000040000000
(1090000000.450169) can0 28B#0000000000000000
(1090000000.450170) can0 19C#1210201B82002720
(1090000000.450171) can0 0D0#4A610C60F3000000
(1090000000.451209) can0 033#000798000E4007D0
(1090000000.451211) can0 274#00F209F5107C86B9
(1090000000.451212) can0 0C0#2000000000000000
(1090000000.451213) can0 6FC#00000758B0B75800
(1090000000.452232) can0 0A7#2010FA24D125C0A0
(1090000000.452233) can0 239#0000007D00004180
(1090000000.452234) can0 FFF#0000000000000000
(1090000000.455085) can0 6E0#0000000000000000
(1090000000.456106) can0 FFF#0000000000000000
(1090000000.457119) can0 107#0000000000000000
(1090000000.458124) can0 FFF#0000000000000000
(1090000000.458126) can0 0BA#06980F441000050C
(1090000000.458127) can0 0F1#640020A0000A0220
(1090000000.458128) can0 295#0000000000000840
(1090000000.459142) can0 2E1#0000000000000004
(1090000000.459145) can0 00E#2052D60208097590
(1090000000.459146) can0 354#1FFF400000040900
(1090000000.459147) can0 125#90003F5F3AE34B60
(1090000000.459148) can0 5E1#893FE00B0A000080
(1090000000.460147) can0 0D0#52610C60F2000000
(1090000000.460148) can0 033#000790000E8007D0
(1090000000.460149) can0 2E2#18080D4040000118
(1090000000.460150) can0 345#050202C23C774081
(1090000000.461144) can0 430#0034478BFC8012A0
(1090000000.461145) can0 162#00080003EA11F4CE
(1090000000.461146) can0 0A7#2010FA24D125C0A0
(1090000000.461147) can0 FFF#0000000000000000
(1090000000.462188) can0 FFF#0000000000000000
(1090000000.462190) can0 0F4#9A0C010204710240
(1090000000.462191) can0 130#0001600000000000
(1090000000.462192) can0 497#0000000000000000
(1090000000.463209) can0 3C1#7B551FBC25BEE92E
(1090000000.465104) can0 193#00080803E6E80000
(1090000000.466125) can0 20E#4E2003A0003FCFFF
(1090000000.466126) can0 522#DF7FD08E6AE84E9C
(1090000000.466127) can0 366#7FDDC8020147CE78
(1090000000.466128) can0 580#0000000396880000
(1090000000.467126) can0 434#020820A2F2F30300
(1090000000.467127) can0 6E0#0000000000000000
(1090000000.467128) can0 498#87FFBFFCFA800002
(1090000000.467129) can0 230#D50008E2D4001A00
(1090000000.468123) can0 4E7#0000001203890000
(1090000000.468124) can0 354#1FFF40000003FA00
(1090000000.469130) can0 00E#2052D60208097590
(1090000000.469131) can0 153#00000004000C0004
(1090000000.469132) can0 69E#0440047E1FC01502
(1090000000.469133) can0 125#90003F5F3AE32D60
(1090000000.470128) can0 FFF#0000000000000000
(1090000000.470129) can0 5E1#893FE00B0A000080
(1090000000.470130) can0 662#4C20000040000000
(1090000000.470131) can0 684#28DA8019417C501E
(1090000000.471152) can0 636#24A40000F1003000
(1090000000.471153) can0 2D7#100060D800000008
(1090000000.471154) can0 28B#0000000000000000
(1090000000.471155) can0 19C#160C201B82002720
(1090000000.472188) can0 0D0#5A610C60F1000000
(1090000000.472190) can0 033#000788000EC007D0
(1090000000.472191) can0 274#00F20BF3107C86B9
(1090000000.472192) can0 0C0#2000000000000000
(1090000000.473210) can0 0A7#2010FA24D125C0A0
(1090000000.473211) can0 2D2#0000280000000000
(1090000000.473212) can0 FFF#0000000000000000
(1090000000.473213) can0 3E4#0134000005000000
(1090000000.474229) can0 65C#4011D27750000000
(1090000000.474230) can0 577#0000080000000146
(1090000000.474231) can0 533#ED7FCF7EFFF8EF7F
(1090000000.475228) can0 6E0#0000000000000000
(1090000000.476959) can0 107#0000000000000000
(1090000000.477933) can0 FFF#0000000000000000
(1090000000.477934) can0 0D0#62610C60F0000000
(1090000000.478954) can0 2E1#0000000000000004
(1090000000.478955) can0 00E#2052D60208097590
(1090000000.478956) can0 354#1FFF40000003F280
(1090000000.478957) can0 125#90003F5F3AE30F60
(1090000000.479963) can0 5E1#893FE00B0A000080
(1090000000.479964) can0 033#000780000F0007D0
(1090000000.479965) can0 162#00080003EA11F4CE
(1090000000.479966) can0 0A7#2010FA24D125C0A0
(1090000000.485091) can0 193#00080803E6E80000
(1090000000.486105) can0 20E#4E2003A0003FAFFF
(1090000000.486106) can0 522#DF7FD08E6A704E9C
(1090000000.486107) can0 366#7FDDC8020147CE78
(1090000000.486108) can0 580#000000038F080000
(1090000000.487105) can0 434#022820A2F2F30300
(1090000000.487106) can0 6E0#0000000000000000
(1090000000.487107) can0 2B4#04410600000BB800
(1090000000.487108) can0 498#87FFBFFCF9800003
(1090000000.488088) can0 464#000240000090139A
(1090000000.488089) can0 230#D40008E2D4001C00
(1090000000.488090) can0 3C1#7B551FBBA57FA92E
(1090000000.488091) can0 354#1FFF40000003F280
(1090000000.489147) can0 00E#2052D60208097590
(1090000000.489149) can0 153#00000004000C0004
(1090000000.489150) can0 69E#0440047E1FC01522
(1090000000.489150) can0 125#90003F5F3AE2F160
(1090000000.490168) can0 5E1#893FE00B0A000080
(1090000000.490169) can0 295#0000000000000840
(1090000000.490170) can0 662#4C20000040000000
(1090000000.490171) can0 28B#0000000000000000
(1090000000.491186) can0 19C#1A08201B82002720
(1090000000.491187) can0 0D0#6A610C60EF000000
(1090000000.491188) can0 033#000778000F4007D0
(1090000000.491189) can0 274#00F20DF1107C86B9
(1090000000.491190) can0 0C0#2000000000000000
(1090000000.492172) can0 0A7#2010FA24D125C0A0
(1090000000.492173) can0 5B3#0400000000006800
(1090000000.492174) can0 407#40015FF016401CA0
(1090000000.492175) can0 FFF#0000000000000000
(1090000000.493169) can0 4FD#11460A4F5D0DCA08
(1090000000.495068) can0 6E0#0000000000000000
(1090000000.496920) can0 107#0000000000000000
(1090000000.497935) can0 FFF#0000000000000000
(1090000000.497936) can0 0BA#06980F441000050C
(1090000000.497937) can0 297#1100002000005210
(1090000000.497938) can0 0D0#72610C60EE000000
(1090000000.498957) can0 2E1#0000000000000004
(1090000000.498958) can0 00E#205296020809758A
(1090000000.498959) can0 354#1FFF40000003E380
(1090000000.498960) can0 125#90003F5F3AE2D360
(1090000000.499993) can0 5E1#893FE00B0A000080
(1090000000.499994) can0 033#000770000F8007D0
(1090000000.499995) can0 162#00080003EA11F4CE
(1090000000.499996) can0 0A7#2010FA24D125C0A0
(1090000000.500970) can0 51B#280C410128000121
(1090000000.500971) can0 32D#00000424CC010000
(1090000000.502854) can0 2C1#01F34FC7CC9FF5FE
(1090000000.505106) can0 193#00080803E6E80000
(1090000000.506082) can0 20E#4E2003A0003F8FFF
(1090000000.506083) can0 522#DF7FD08E69F84EDC
(1090000000.506084) can0 366#7FDDC8020147CE78
(1090000000.506085) can0 580#0000000387880000
(1090000000.507088) can0 434#024000A2F2F30300
(1090000000.507089) can0 6E0#0000000000000000
(1090000000.507090) can0 498#87FFBFFCF8800004
(1090000000.507091) can0 230#D30008E2D4001E00
(1090000000.508112) can0 153#00000004000C0004
(1090000000.508114) can0 354#1FFF40000003E380
(1090000000.509146) can0 00E#205296020809758A
(1090000000.509147) can0 5E1#893FE00B0A000080
(1090000000.509148) can0 69E#0440047E1FC01502
(1090000000.509149) can0 125#90003F5F3AE2B560
(1090000000.510161) can0 662#4C20000040000000
(1090000000.510162) can0 28B#0000000000000000
(1090000000.510163) can0 19C#1E04201B82002720
(1090000000.510164) can0 0D0#7A610C60ED000000
(1090000000.511181) can0 033#000768000FC007D0
(1090000000.511183) can0 274#00F20FEF107C86B9
(1090000000.511184) can0 0C0#2000000000000000
(1090000000.511185) can0 0A7#2010FA24D125C0A0
(1090000000.512170) can0 03D#00002A8000000000
(1090000000.512171) can0 FFF#0000000000000000
(1090000000.513196) can0 3C1#7B551FBB6500292E
(1090000000.513197) can0 03C#0000040031000000
(1090000000.514197) can0 207#24046048129E94D0
(1090000000.514199) can0 4C9#019955820D00F64B
(1090000000.514200) can0 1D6#020F828030244080
(1090000000.515218) can0 6E0#0000000000000000
(1090000000.516979) can0 107#0000000000000000
(1090000000.517951) can0 FFF#0000000000000000
(1090000000.517953) can0 295#0000000000000840
(1090000000.519008) can0 2E1#0000000000000004
(1090000000.519016) can0 00E#2052D6020809758A
(1090000000.519017) can0 354#1FFF40000003D480
(1090000000.519018) can0 125#90003F5F3AE29760
(1090000000.520002) can0 5E1#893FE00B0A000080
(1090000000.520003) can0 0D0#02610C60FC000000
(1090000000.520004) can0 033#0007E0000C0007D0
(1090000000.520005) can0 162#00080003EA11F4CE
(1090000000.521021) can0 0A7#2010FA24D125C0A0
(1090000000.521023) can0 585#0040000000020018
(1090000000.521024) can0 577#0000080000000146
(1090000000.525080) can0 193#00080803E6E80000
(1090000000.526100) can0 20E#4E2003A0003F8FFF
(1090000000.526102) can0 522#DF7FD08E71004EDC
(1090000000.526103) can0 366#7FDDC8020147CE78
(1090000000.526104) can0 580#00000003F8080000
(1090000000.527103) can0 434#026000A2F2F30300
(1090000000.527104) can0 6E0#0000000000000000
(1090000000.527105) can0 498#87FFBFFCF7800005
(1090000000.527106) can0 230#E20008E2D4000000
(1090000000.528123) can0 153#00000004000C0004
(1090000000.528125) can0 354#1FFF40000003CD00
(1090000000.529145) can0 00E#2052960208097584
(1090000000.529147) can0 5E1#893FE00B0A000080
(1090000000.529148) can0 69E#0440047E1FC01502
(1090000000.529148) can0 125#90003F5F3AE27960
(1090000000.530167) can0 662#4C20000040000000
(1090000000.530169) can0 28B#0000000000000000
(1090000000.530170) can0 19C#0220201B82002720
(1090000000.530170) can0 0D0#0A610C60FB000000
(1090000000.531167) can0 033#0007D8000C4007D0
(1090000000.531169) can0 274#00F201FD107C86B9
(1090000000.531170) can0 0C0#2000000000000000
(1090000000.531171) can0 0A7#2010FA24D125C0A0
(1090000000.532188) can0 1CA#3FF9FF8000000CA0
(1090000000.532189) can0 FFF#0000000000000000
(1090000000.535123) can0 6E0#0000000000000000
(1090000000.536146) can0 66C#0080100020000020
(1090000000.537112) can0 107#0000000000000000
(1090000000.538181) can0 FFF#0000000000000000
(1090000000.538182) can0 0BA#06980F041000050C
(1090000000.538183) can0 3C1#7B551FBAE4C0E92E
(1090000000.538184) can0 2E1#0000000000000004
(1090000000.539179) can0 354#1FFF40000003CD00
(1090000000.539180) can0 00E#205296020809758A
(1090000000.539181) can0 5E1#893FE00B0A000080
(1090000000.539182) can0 125#90003F5F3AE25B60
(1090000000.540150) can0 0D0#12610C60FA000000
(1090000000.540151) can0 033#0007D0000C8007D0
(1090000000.540153) can0 162#00080003EA11F4CE
(1090000000.540154) can0 0A7#2010FA24D125C0A0
(1090000000.541163) can0 2A3#00000003FE803C00
(1090000000.541164) can0 4FD#114E0A4F690F4A08
(1090000000.542991) can0 0D7#0000020080000000
(1090000000.545092) can0 193#00080803E6E80000
(1090000000.546103) can0 20E#4E1FFFA0003FAFFF
(1090000000.546104) can0 522#DF7FD08E70884E9C
(1090000000.546105) can0 366#7FDDC8020147CE78
(1090000000.546106) can0 580#00000003F0880000
(1090000000.547109) can0 434#028AA0A2F2F30300
(1090000000.547110) can0 6E0#0000000000000000
(1090000000.547111) can0 498#87FFBFFCF6800006
(1090000000.547112) can0 230#E10008E2D4000200
(1090000000.548128) can0 32D#00000424CC010000
(1090000000.548129) can0 153#00000004000C0004
(1090000000.548130) can0 354#1FFF40000003BE00
(1090000000.549133) can0 00E#2052D60208097584
(1090000000.549134) can0 5E1#893FE00B0A000080
(1090000000.549135) can0 69E#0440047E1FC01502
(1090000000.549136) can0 125#90003F5F3AE23D60
(1090000000.550165) can0 295#0000000000000840
(1090000000.550166) can0 662#4C20000040000000
(1090000000.550167) can0 28B#0000000000000000
(1090000000.550168) can0 19C#061C201B82002720
(1090000000.551167) can0 0D0#1A610C60F9000000
(1090000000.551168) can0 033#0007C8000CC007D0
(1090000000.551170) can0 274#00F203FB107C86B9
(1090000000.551171) can0 0C0#2000000000000000
(1090000000.552196) can0 6FC#00000758B0B75800
(1090000000.552198) can0 0A7#2010FA24D125C0A0
(1090000000.552199) can0 26E#010A00828A6A0A04
(1090000000.552200) can0 239#0000007D00004180
(1090000000.553213) can0 FFF#0000000000000000
(1090000000.555096) can0 6E0#0000000000000000
(1090000000.556102) can0 FFF#0000000000000000
(1090000000.557122) can0 025#0000168840522AE1
(1090000000.557123) can0 107#0000000000000000
(1090000000.558142) can0 FFF#0000000000000000
(1090000000.558143) can0 0D0#22610C60F8000000
(1090000000.558144) can0 2E1#0000000000000004
(1090000000.559139) can0 00E#2052D60208097590
(1090000000.559141) can0 354#1FFF40000003B680
(1090000000.559142) can0 125#90003F5F3AE21F60
(1090000000.559143) can0 5E1#893FE00B0A000080
(1090000000.560151) can0 033#0007C0000D0007D0
(1090000000.560152) can0 2E2#18080D4040000118
(1090000000.560153) can0 345#050202C23C774081
(1090000000.560154) can0 430#0034478BFC8012A0
(1090000000.561150) can0 162#00080003EA11F4CE
(1090000000.561151) can0 0A7#2010FA24D125C0A0
(1090000000.561152) can0 130#0001600000000000
(1090000000.561153) can0 497#0000000000000000
(1090000000.562173) can0 FFF#0000000000000000
(1090000000.562175) can0 FFF#0000000000000000
(1090000000.562176) can0 0F4#9A0C010204710240
(1090000000.563192) can0 3C1#7B551FBB2401692E
(1090000000.565105) can0 193#00080803E6E80000
(1090000000.566124) can0 20E#4E2003A0003FAFFF
(1090000000.566125) can0 522#DF7FD08E70104EDC
(1090000000.566126) can0 366#7FDDC8020147CE78
(1090000000.566141) can0 580#00000003E9080000
(1090000000.567104) can0 434#02AAA0A2F2F30300
(1090000000.567105) can0 6E0#0000000000000000
(1090000000.567106) can0 498#87FFBFFCF5800007
(1090000000.567107) can0 230#E00008E2D4000400
(1090000000.568146) can0 4E7#0000001203890000
(1090000000.568148) can0 354#1FFF40000003B680
(1090000000.569131) can0 00E#2052D60208097584
(1090000000.569132) can0 153#00000004000C0004
(1090000000.569133) can0 69E#0440047E1FC01502
(1090000000.569134) can0 125#90003F5F3AE3E160
(1090000000.570128) can0 FFF#0000000000000000
(1090000000.570129) can0 5E1#893FE00B0A000080
(1090000000.570130) can0 662#4C20000040000000
(1090000000.570131) can0 684#28DA8019417C501E
(1090000000.571154) can0 636#24A40000F1003000
(1090000000.571155) can0 2D7#100060E000000008
(1090000000.571156) can0 28B#0000000000000000
(1090000000.571157) can0 19C#0A18201B82002720
(1090000000.572202) can0 0D0#2A610C60F7000000
(1090000000.572203) can0 033#0007B8000D4007D0
(1090000000.572204) can0 274#00F205F9107C86B9
(1090000000.572205) can0 0C0#2000000000000000
(1090000000.573230) can0 0A7#2010FA24D125C0A0
(1090000000.573231) can0 2D2#0000300000000000
(1090000000.573232) can0 55C#101C000043863000
(1090000000.573247) can0 FFF#0000000000000000
(1090000000.573248) can0 3E4#0134000005000000
(1090000000.574212) can0 65C#4011D27750000000
(1090000000.574213) can0 577#0000080000000146
(1090000000.575214) can0 6E0#0000000000000000
(1090000000.576956) can0 107#0000000000000000
(1090000000.577962) can0 FFF#0000000000000000
(1090000000.577964) can0 0BA#06980F041000050C
(1090000000.577965) can0 295#0000000000000840
(1090000000.578980) can0 2E1#0000000000000004
(1090000000.578981) can0 00E#205296020809758A
(1090000000.578982) can0 354#1FFF40000003A780
(1090000000.578983) can0 5E1#893FE00B0A000080
(1090000000.580000) can0 125#90003F5F3AE3C360
(1090000000.580002) can0 0D0#32610C60F6000000
(1090000000.580003) can0 033#0007B0000D8007D0
(1090000000.580004) can0 162#00080003EA11F4CE
(1090000000.581021) can0 0A7#2010FA24D125C0A0
(1090000000.581022) can0 FFF#0000000000000000
(1090000000.585092) can0 193#00080803E6E80000
(1090000000.586111) can0 20E#4E2003A0003FAFFF
(1090000000.586112) can0 522#DF7FD08E6F984E9C
(1090000000.586113) can0 366#7FDDC8020147CE78
(1090000000.586114) can0 580#00000003E1880000
(1090000000.587108) can0 434#02CAA0A2F2F30300
(1090000000.587109) can0 2B4#04410600000BB800
(1090000000.587110) can0 6E0#0000000000000000
(1090000000.587111) can0 498#87FFBFFCF4800008
(1090000000.588136) can0 464#000240000090129B
(1090000000.588151) can0 230#DF0008E2D4000600
(1090000000.588152) can0 3C1#7B551FBB2342292E
(1090000000.588153) can0 354#1FFF40000003A780
(1090000000.589170) can0 00E#2052D60208097590
(1090000000.589188) can0 153#00000004000C0004
(1090000000.589189) can0 69E#0440047E1FC01502
(1090000000.589190) can0 125#90003F5F3AE3A560
(1090000000.590211) can0 5E1#893FE00B0A000080
(1090000000.590212) can0 662#4C20000040000000
(1090000000.590228) can0 28B#0000000000000000
(1090000000.590229) can0 19C#0E14201B82002720
(1090000000.591178) can0 0D0#3A610C60F5000000
(1090000000.591179) can0 033#0007A8000DC007D0
(1090000000.591180) can0 274#00F207F7107C86B9
(1090000000.591181) can0 0C0#2000000000000000
(1090000000.591182) can0 0A7#2010FA24D125C0A0
(1090000000.592174) can0 5B3#0400000000006800
(1090000000.592175) can0 407#40015FF016401CA0
(1090000000.592176) can0 4FD#11470A505F0DCA08
(1090000000.592177) can0 FFF#0000000000000000
(1090000000.593223) can0 075#0F8E000FD51EA000
(1090000000.595091) can0 6E0#0000000000000000
(1090000000.596926) can0 107#0000000000000000
(1090000000.597947) can0 FFF#0000000000000000
(1090000000.597948) can0 32D#00000424CC010000
(1090000000.597949) can0 0D0#42610C60F4000000
(1090000000.598963) can0 2E1#0000000000000004
(1090000000.598983) can0 00E#2052D60208097584
(1090000000.598984) can0 354#1FFF400000041080
(1090000000.598985) can0 125#90003F5F3AE38760
(1090000000.599983) can0 5E1#893FE00B0A000080
(1090000000.599984) can0 033#0007A0000E0007D0
(1090000000.599985) can0 162#00080003EA11F4CE
(1090000000.599986) can0 0A7#2010FA24D125C0A0
(1090000000.600982) can0 03A#00000000001DC000
(1090000000.605083) can0 193#00080803E6E80000
(1090000000.606105) can0 20E#4E1FFFA0003FCFFF
(1090000000.606107) can0 522#DF7FD08E6F204E9C
(1090000000.606122) can0 366#7FDDC8020147CE78
(1090000000.606123) can0 580#00000003DA080000
(1090000000.607129) can0 434#02EAA0A2F2F30300
(1090000000.607130) can0 6E0#0000000000000000
(1090000000.607131) can0 498#87FFBFFCF3800009
(1090000000.607132) can0 230#DE0008E2CC000800
(1090000000.608128) can0 2C1#01F3EFC7CA1FDE14
(1090000000.608129) can0 354#1FFF400000040900
(1090000000.609147) can0 153#00000004000C0004
(1090000000.609148) can0 00E#2052D60208097590
(1090000000.609149) can0 69E#0440047E1FC01502
(1090000000.609150) can0 125#90003F5F3AE36960
(1090000000.610185) can0 5E1#893FE00B0A000080
(1090000000.610187) can0 295#0000000000000840
(1090000000.610188) can0 662#4C20000040000000
(1090000000.610189) can0 28B#0000000000000000
(1090000000.610190) can0 19C#1210201B82002720
(1090000000.611189) can0 0D0#4A610C60F3000000
(1090000000.611190) can0 033#000798000E4007D0
(1090000000.611191) can0 274#00F209F5107C86B9
(1090000000.611192) can0 0C0#2000000000000000
(1090000000.612181) can0 0A7#2010FA24D125C0A0
(1090000000.612182) can0 03D#00002A8000000000
(1090000000.612183) can0 FFF#0000000000000000
(1090000000.613176) can0 4CB#8000000000000000
(1090000000.613177) can0 280#18E0027000000000
(1090000000.613178) can0 3C1#7B551FBB22C2A92E
(1090000000.613179) can0 03C#0000040031000000
(1090000000.614229) can0 207#2404E058129E94D0
(1090000000.614245) can0 4C9#019915820D00F64B
(1090000000.614247) can0 1D6#020B808030244080
(1090000000.615226) can0 6E0#0000000000000000
(1090000000.616958) can0 107#0000000000000000
(1090000000.617979) can0 FFF#0000000000000000
(1090000000.617980) can0 0BA#06980F041000050C
(1090000000.617981) can0 0D0#52610C60F2000000
(1090000000.618975) can0 2E1#0000000000000004
(1090000000.618976) can0 00E#2052D60208097590
(1090000000.618977) can0 354#1FFF400000040900
(1090000000.618978) can0 125#90003F5F3AE34B60
(1090000000.619965) can0 5E1#893FE00B0A000080
(1090000000.619967) can0 033#000790000E8007D0
(1090000000.619968) can0 162#00080003EA11F4CE
(1090000000.619969) can0 0A7#2010FA24D125C0A0
(1090000000.620986) can0 585#0040000000020018
(1090000000.620987) can0 577#0000080000000146
(1090000000.625155) can0 193#00080803E6E80000
(1090000000.626126) can0 20E#4E2003A0003FAFF7
(1090000000.626127) can0 522#DF7FD08E6EA84E9C
(1090000000.626128) can0 366#7FDDC8020147CE78
(1090000000.626129) can0 580#00000003D2880000
(1090000000.627125) can0 434#030AA0A2F2F30300
(1090000000.627126) can0 6E0#0000000000000000
(1090000000.627127) can0 498#87FFBFFCF280000A
(1090000000.627128) can0 230#DD0008E2D4000A00
(1090000000.628129) can0 153#00000004000C0004
(1090000000.628130) can0 354#1FFF40000003FA00
(1090000000.629129) can0 00E#2052D60208097590
(1090000000.629130) can0 5E1#893FE00B0A000080
(1090000000.629131) can0 69E#0440047E1FC01502
(1090000000.629132) can0 125#90003F5F3AE32D60
(1090000000.630151) can0 662#4C20000040000000
(1090000000.630152) can0 28B#0000000000000000
(1090000000.630153) can0 19C#160C201B82002720
(1090000000.630154) can0 0D0#5A610C60F1000000
(1090000000.631173) can0 033#000788000EC007D0
(1090000000.631174) can0 274#00F20BF3107C86B9
(1090000000.631175) can0 0C0#2000000000000000
(1090000000.631175) can0 0A7#2010FA24D125C0A0
(1090000000.632169) can0 1CA#3FF9FF8000000CA0
(1090000000.632170) can0 FFF#0000000000000000
(1090000000.635089) can0 6E0#0000000000000000
(1090000000.636146) can0 66C#0080100020000020
(1090000000.637158) can0 107#0000000000000000
(1090000000.638183) can0 FFF#0000000000000000
(1090000000.638184) can0 3C1#7B551FBBE143692E
(1090000000.638185) can0 2E1#0000000000000004
(1090000000.639166) can0 354#1FFF40000003F280
(1090000000.639168) can0 00E#2052D60208097590
(1090000000.639188) can0 5E1#893FE00B0A000080
(1090000000.639189) can0 125#90003F5F3AE30F60
(1090000000.639190) can0 295#0000000000000840
(1090000000.640156) can0 0D0#62610C60F0000000
(1090000000.640158) can0 033#000780000F0007D0
(1090000000.640159) can0 162#00080003EA11F4CE
(1090000000.640160) can0 0A7#2010FA24D125C0A0
(1090000000.641178) can0 2A3#00000003FE803C00
(1090000000.641182) can0 4FD#11450A4F5D0D4A08
(1090000000.643009) can0 0D7#0000020080000000
(1090000000.645086) can0 193#00080803E6E80000
(1090000000.646106) can0 20E#4E2003A0003FAFFF
(1090000000.646107) can0 522#DF7FD08E6E304E9C
(1090000000.646108) can0 366#7FDDC8020147CE78
(1090000000.646123) can0 580#00000003CB080000
(1090000000.647126) can0 434#032AA0A2F2F30300
(1090000000.647128) can0 6E0#0000000000000000
(1090000000.647129) can0 498#87FFBFFCF180000B
(1090000000.647144) can0 230#DC0008E2D4000C00
(1090000000.648145) can0 1C4#0000020002800000
(1090000000.648146) can0 2A4#36DC001C040898D0
(1090000000.648147) can0 32D#00000424CC010000
(1090000000.648148) can0 354#1FFF40000003F280
(1090000000.649147) can0 153#00000004000C0004
(1090000000.649148) can0 00E#2052960208097590
(1090000000.649149) can0 69E#0440047E1FC01502
(1090000000.649165) can0 125#90003F5F3AE2F160
(1090000000.650132) can0 5E1#893FE00B0A000080
(1090000000.650133) can0 662#4C20000040000000
(1090000000.650134) can0 28B#0000000000000000
(1090000000.650135) can0 19C#1A08201B82002720
(1090000000.650136) can0 0D0#6A610C60EF000000
(1090000000.651153) can0 033#000778000F4007D0
(1090000000.651154) can0 274#00F20DF1107C86B9
(1090000000.651155) can0 0C0#2000000000000000
(1090000000.651156) can0 6FC#00000758B0B75800
(1090000000.652152) can0 0A7#2010FA24D125C0A0
(1090000000.652153) can0 26E#010A00828A6A0A04
(1090000000.652154) can0 239#0000007D00004180
(1090000000.652155) can0 FFF#0000000000000000
(1090000000.655107) can0 6E0#0000000000000000
(1090000000.656161) can0 FFF#0000000000000000
(1090000000.657160) can0 107#0000000000000000
(1090000000.658185) can0 FFF#0000000000000000
(1090000000.658186) can0 0BA#06980F041000050C
(1090000000.658187) can0 0D0#72610C60EE000000
(1090000000.658188) can0 2E1#0000000000000004
(1090000000.659136) can0 00E#2052960208097584
(1090000000.659138) can0 354#1FFF40000003E380
(1090000000.659139) can0 125#90003F5F3AE2D360
(1090000000.659140) can0 5E1#893FE00B0A000080
(1090000000.660191) can0 033#000770000F8007D0
(1090000000.660192) can0 2E2#18080D4040000118
(1090000000.660193) can0 345#050202C23C774081
(1090000000.660194) can0 430#0034478BFC8012A0
(1090000000.661170) can0 162#00080003EA11F4CE
(1090000000.661172) can0 0A7#2010FA24D125C0A0
(1090000000.661173) can0 130#0001600000000000
(1090000000.661173) can0 497#0000000000000000
(1090000000.662212) can0 FFF#0000000000000000
(1090000000.662213) can0 FFF#0000000000000000
(1090000000.662214) can0 0F4#9A0C010204710240
(1090000000.663230) can0 3C1#7B551FBCA003E92E
(1090000000.665119) can0 193#00080803E6E80000
(1090000000.666147) can0 20E#4E2007A0003FAFFF
(1090000000.666148) can0 522#DF7FD08E6DB84E9C
(1090000000.666149) can0 366#7FDDC8020147CE78
(1090000000.666150) can0 580#00000003C3880000
(1090000000.667162) can0 434#034AA0A2F2F30300
(1090000000.667163) can0 6E0#0000000000000000
(1090000000.667164) can0 498#87FFBFFCF080000C
(1090000000.667165) can0 230#DB0008E2CC000E00
(1090000000.668167) can0 4E7#0000001203890000
(1090000000.668168) can0 354#1FFF40000003E380
(1090000000.669189) can0 00E#205296020809758A
(1090000000.669191) can0 153#00000004000C0004
(1090000000.669192) can0 69E#0440047E1FC01522
(1090000000.669193) can0 125#90003F5F3AE2B560
(1090000000.670174) can0 FFF#0000000000000000
(1090000000.670178) can0 5E1#893FE00B0A000080
(1090000000.670179) can0 295#0000000000000840
(1090000000.670180) can0 662#4C20000040000000
(1090000000.671174) can0 684#28DA8019417C501E
(1090000000.671175) can0 636#24A40000F1003000
(1090000000.671176) can0 2D7#100060D800000008
(1090000000.671177) can0 28B#0000000000000000
(1090000000.672170) can0 19C#1E04201B82002720
(1090000000.672171) can0 0D0#7A610C60ED000000
(1090000000.672172) can0 033#000768000FC007D0
(1090000000.672173) can0 274#00F20FEF107C86B9
(1090000000.673216) can0 0C0#2000000000000000
(1090000000.673217) can0 0A7#2010FA24D125C0A0
(1090000000.673218) can0 2D2#0000380000000000
(1090000000.673219) can0 FFF#0000000000000000
(1090000000.673220) can0 3E4#0134000005000000
(1090000000.674237) can0 65C#4011D27750000000
(1090000000.674239) can0 577#0000080000000146
(1090000000.674240) can0 277#10034810000001D0
(1090000000.675243) can0 6E0#0000000000000000
(1090000000.676978) can0 107#0000000000000000
(1090000000.677997) can0 FFF#0000000000000000
(1090000000.677998) can0 0D0#02610C60FC000000
(1090000000.678986) can0 2E1#0000000000000004
(1090000000.678988) can0 00E#2052D60208097590
(1090000000.678989) can0 354#1FFF40000003D480
(1090000000.678990) can0 125#90003F5F3AE29760
(1090000000.680026) can0 5E1#893FE00B0A000080
(1090000000.680027) can0 033#0007E0000C0007D0
(1090000000.680027) can0 162#00080003EA11F4CE
(1090000000.680028) can0 0A7#2010FA24D125C0A0
(1090000000.681004) can0 3A2#8E10000038010000
(1090000000.685106) can0 193#00080803E6E80000
(1090000000.686080) can0 20E#4E2003A0003FAFFF
(1090000000.686081) can0 522#DF7FD08E6D404EDC
(1090000000.686082) can0 366#7FDDC8020147CE78
(1090000000.686082) can0 580#00000003BC080000
(1090000000.687098) can0 434#036AA0A2F2F30300
(1090000000.687100) can0 2B4#04410600000BB800
(1090000000.687115) can0 6E0#0000000000000000
(1090000000.687116) can0 498#87FFBFFCEF80000D
(1090000000.688112) can0 464#000240000090119C
(1090000000.688113) can0 230#DA0008E2D4001000
(1090000000.688114) can0 3C1#7B551FBAE104A92E
(1090000000.688115) can0 354#1FFF40000003CD00
(1090000000.689125) can0 153#00000004000C0004
(1090000000.689126) can0 00E#205296020809758A
(1090000000.689127) can0 69E#0440047E1FC01502
(1090000000.689128) can0 125#90003F5F3AE27960
(1090000000.690155) can0 5E1#893FE00B0A000080
(1090000000.690157) can0 662#4C20000040000000
(1090000000.690158) can0 28B#0000000000000000
(1090000000.690159) can0 19C#0220201B82002720
(1090000000.690160) can0 0D0#0A610C60FB000000
(1090000000.691151) can0 033#0007D8000C4007D0
(1090000000.691152) can0 274#00F201FD107C86B9
(1090000000.691153) can0 0C0#2000000000000000
(1090000000.691154) can0 0A7#2010FA24D125C0A0
(1090000000.692176) can0 5B3#0400000000006800
(1090000000.692177) can0 407#40015FF016401CA0
(1090000000.692178) can0 4FD#11430A4F590D4A08
(1090000000.692179) can0 FFF#0000000000000000
(1090000000.695087) can0 6E0#0000000000000000
(1090000000.696983) can0 107#0000000000000000
(1090000000.697984) can0 FFF#0000000000000000
(1090000000.697986) can0 0BA#06980F041000050C
(1090000000.697987) can0 51B#0802213987280001
(1090000000.697988) can0 295#0000000000000840
(1090000000.698971) can0 2E1#0000000000000004
(1090000000.698972) can0 00E#205296020809758A
(1090000000.698973) can0 354#1FFF40000003CD00
(1090000000.698974) can0 125#90003F5F3AE25B60
(1090000000.700033) can0 5E1#893FE00B0A000080
(1090000000.700034) can0 0D0#12610C60FA000000
(1090000000.700035) can0 033#0007D0000C8007D0
(1090000000.700036) can0 162#00080003EA11F4CE
(1090000000.701043) can0 0A7#2010FA24E125C0A0
(1090000000.701044) can0 32D#00000424CC010000
(1090000000.705084) can0 193#00080803E6E80000
(1090000000.706084) can0 20E#4E1FFFA0003FAFFF
(1090000000.706086) can0 522#DF7FD08E6CC84EDC
(1090000000.706087) can0 2B7#0020284000008040
(1090000000.706088) can0 366#7FDDC8020147CE78
(1090000000.707074) can0 580#00000003B4880000
(1090000000.707076) can0 434#0382A0A2F2F30300
(1090000000.707077) can0 6E0#0000000000000000
(1090000000.707078) can0 498#87FFBFFCEE80000E
(1090000000.708092) can0 230#D90008E2D4001200
(1090000000.708093) can0 153#00000004000C0004
(1090000000.709093) can0 354#1FFF40000003BE00
(1090000000.709094) can0 00E#2052960208097590
(1090000000.709095) can0 5E1#893FE00B0A000080
(1090000000.709096) can0 69E#0440047E1FC01522
(1090000000.709096) can0 125#90003F5F3AE23D60
(1090000000.710112) can0 662#4C20000040000000
(1090000000.710117) can0 28B#0000000000000000
(1090000000.710118) can0 19C#061C201B82002720
(1090000000.710119) can0 0D0#1A610C60F9000000
(1090000000.711112) can0 033#0007C8000CC007D0
(1090000000.711113) can0 274#00F203FB107C86B9
(1090000000.711114) can0 0C0#2000000000000000
(1090000000.711115) can0 0A7#2010FA24D125C0A0
(1090000000.712129) can0 03D#00002A8000000000
(1090000000.712130) can0 FFF#0000000000000000
(1090000000.713151) can0 3C1#7B551FBB6005292E
(1090000000.713152) can0 2C1#01F3AFC7CB9FC828
(1090000000.714156) can0 03C#0000040031000000
(1090000000.714157) can0 207#24046048129E94D0
(1090000000.714158) can0 4C9#019915820D00F64B
(1090000000.714159) can0 1D6#020F828030244080
(1090000000.715174) can0 6E0#0000000000000000
(1090000000.717431) can0 107#0000000000000000
(1090000000.718480) can0 FFF#0000000000000000
(1090000000.718482) can0 2E1#0000000000000004
(1090000000.718483) can0 354#1FFF40000003B680
(1090000000.718484) can0 00E#205296020809758A
(1090000000.719480) can0 5E1#893FE00B0A000080
(1090000000.719481) can0 125#90003F5F3AE21F60
(1090000000.719482) can0 0D0#22610C60F8000000
(1090000000.719483) can0 033#0007C0000D0007D0
(1090000000.720502) can0 162#00080003EA11F4CE
(1090000000.720503) can0 0A7#2010FA24D125C0A0
(1090000000.720504) can0 585#0040000000020018
(1090000000.720505) can0 55C#101C000043863000
(1090000000.721543) can0 577#0000080000000148
(1090000000.725088) can0 193#00080803E6E80000
(1090000000.726106) can0 20E#4E2003A0003FAFFF
(1090000000.726107) can0 522#DF7FD08E6C504E9C
(1090000000.726108) can0 366#7FDDC8020147CE78
(1090000000.726109) can0 580#00000003AD080000
(1090000000.727064) can0 434#03AAA0A2F2F30300
(1090000000.727065) can0 6E0#0000000000000000
(1090000000.727066) can0 498#87FFBFFCED80000F
(1090000000.727067) can0 230#D80008E2D4001400
(1090000000.728144) can0 153#00000004000C0004
(1090000000.728145) can0 354#1FFF40000003B680
(1090000000.729112) can0 00E#2052960208097590
(1090000000.729113) can0 5E1#893FE00B0A000080
(1090000000.729114) can0 69E#0440047E1FC01522
(1090000000.729115) can0 125#90003F5F3AE3E160
(1090000000.730168) can0 295#0000000000000840
(1090000000.730169) can0 662#4C20000040000000
(1090000000.730170) can0 28B#0000000000000000
(1090000000.730171) can0 19C#0A18201B82002720
(1090000000.731188) can0 0D0#2A610C60F7000000
(1090000000.731189) can0 033#0007B8000D4007D0
(1090000000.731190) can0 274#00F205F9107C86B9
(1090000000.731191) can0 0C0#2000000000000000
(1090000000.732211) can0 0A7#2010FA24D125C0A0
(1090000000.732213) can0 1CA#3FF9FF8000000CA0
(1090000000.732214) can0 FFF#0000000000000000
(1090000000.735129) can0 6E0#0000000000000000
(1090000000.736126) can0 66C#0080100020000020
(1090000000.737145) can0 107#0000000000000000
(1090000000.738114) can0 FFF#0000000000000000
(1090000000.738115) can0 0BA#06980F041000050C
(1090000000.738116) can0 3C1#7B551FBC1E85E92E
(1090000000.738117) can0 2E1#0000000000000004
(1090000000.739190) can0 354#1FFF40000003A780
(1090000000.739191) can0 00E#2052D6020809758A
(1090000000.739192) can0 5E1#893FE00B0A000080
(1090000000.739193) can0 125#90003F5F3AE3C360
(1090000000.740213) can0 0D0#32610C60F6000000
(1090000000.740214) can0 033#0007B0000D8007D0
(1090000000.740215) can0 162#00080003EA11F4CE
(1090000000.740217) can0 0A7#2010FA24E125C0A0
(1090000000.740218) can0 2A3#00000003FE803C00
(1090000000.741176) can0 4FD#114A0A50630E4A08
(1090000000.741177) can0 2AB#A4D0C9D7E2708AB5
(1090000000.741178) can0 6D7#40034001A012223A
(1090000000.742231) can0 12C#710A602A4B1A03E0
(1090000000.743265) can0 0D7#0000020080000000
(1090000000.745094) can0 193#00080803E6E80000
(1090000000.746127) can0 20E#4E2003A0003FAFFF
(1090000000.746129) can0 522#DF7FD08E6BD84E9C
(1090000000.746130) can0 366#7FDDC8020147CE78
(1090000000.746145) can0 580#00000003A5880000
(1090000000.747139) can0 434#03CAA0A2F2F30300
(1090000000.747140) can0 6E0#0000000000000000
(1090000000.747141) can0 498#87FFBFFCFC800000
(1090000000.747142) can0 230#D70008E2D4001600
(1090000000.748113) can0 32D#00000424CC010000
(1090000000.748114) can0 153#00000004000C0004
(1090000000.748133) can0 354#1FFF40000003A780
(1090000000.749130) can0 00E#2052D6020809758A
(1090000000.749131) can0 5E1#893FE00B0A000080
(1090000000.749132) can0 69E#0440047E1FC01522
(1090000000.749133) can0 125#90003F5F3AE3A560
(1090000000.750132) can0 662#4C20000040000000
(1090000000.750134) can0 28B#0000000000000000
(1090000000.750135) can0 19C#0E14201B82002720
(1090000000.750136) can0 0D0#3A610C60F5000000
(1090000000.751151) can0 033#0007A8000DC007D0
(1090000000.751152) can0 274#00F207F7107C86B9
(1090000000.751153) can0 0C0#2000000000000000
(1090000000.751154) can0 6FC#0000075890B75800
(1090000000.752171) can0 0A7#2010FA24D125C0A0
(1090000000.752172) can0 26E#010A00828A6A0A04
(1090000000.752173) can0 239#0000007D000041A0
(1090000000.752174) can0 FFF#0000000000000000
(1090000000.755103) can0 6E0#0000000000000000
(1090000000.756149) can0 FFF#0000000000000000
(1090000000.757147) can0 107#0000000000000000
(1090000000.758167) can0 FFF#0000000000000000
(1090000000.758169) can0 295#0000000000000840
(1090000000.758170) can0 2E1#0000000000000004
(1090000000.759201) can0 00E#2052960208097590
(1090000000.759202) can0 354#1FFF400000041080
(1090000000.759203) can0 125#90003F5F3AE38760
(1090000000.759204) can0 5E1#893FE00B0A000080
(1090000000.760184) can0 0D0#42610C60F4000000
(1090000000.760185) can0 033#0007A0000E0007D0
(1090000000.760186) can0 2E2#18080D4040000118
(1090000000.760187) can0 345#050202C23C774081
(1090000000.761188) can0 430#0034478BFC8012A0
(1090000000.761189) can0 162#00080003EA11F4CE
(1090000000.761190) can0 0A7#2010FA24D125C0A0
(1090000000.761191) can0 130#0001600000000000
(1090000000.762207) can0 497#0000000000000000
(1090000000.762208) can0 FFF#0000000000000000
(1090000000.762209) can0 FFF#0000000000000000
(1090000000.762210) can0 0F4#9A0C010204710240
(1090000000.763194) can0 3C1#7B551FBBDE46692E
(1090000000.765092) can0 193#00080803E6E80000
(1090000000.766108) can0 20E#4E2003A0003FAFFF
(1090000000.766109) can0 522#DF7FD08E6B604E9C
(1090000000.766110) can0 366#7FDDC8020147CE78
(1090000000.766111) can0 580#000000039E080000
(1090000000.767111) can0 434#03EAA0A2F2F30300
(1090000000.767112) can0 6E0#0000000000000000
(1090000000.767113) can0 498#87FFBFFCFB800001
(1090000000.767114) can0 230#D60008E2D4001800
(1090000000.768145) can0 4E7#0000001203890000
(1090000000.768146) can0 354#1FFF400000040900
(1090000000.769146) can0 00E#2052960208097596
(1090000000.769147) can0 153#00000004000C0004
(1090000000.769148) can0 69E#0440047E1FC01522
(1090000000.769149) can0 125#90003F5F3AE36960
(1090000000.770166) can0 FFF#0000000000000000
(1090000000.770167) can0 5E1#893FE00B0A000080
(1090000000.770168) can0 662#4C20000040000000
(1090000000.770169) can0 684#28DA8019417C501E
(1090000000.771166) can0 636#24A40000F1003000
(1090000000.771167) can0 2D7#100060D800000008
(1090000000.771168) can0 28B#0000000000000000
(1090000000.771169) can0 19C#1210201B82002720
(1090000000.772189) can0 0D0#4A610C60F3000000
(1090000000.772190) can0 033#000798000E4007D0
(1090000000.772191) can0 274#00F209F5107C86B9
(1090000000.772192) can0 0C0#2000000000000000
(1090000000.773198) can0 0A7#2010FA24E125C0A0
(1090000000.773199) can0 2D2#0000400000000000
(1090000000.773200) can0 FFF#0000000000000000
(1090000000.773201) can0 3E4#0134000005000000
(1090000000.773202) can0 65C#4011D27750000000
(1090000000.774227) can0 577#0000080000000148
(1090000000.775227) can0 6E0#0000000000000000
(1090000000.776964) can0 107#0000000000000000
(1090000000.777979) can0 FFF#0000000000000000
(1090000000.777980) can0 0BA#06980F041000050C
(1090000000.777981) can0 0D0#52610C60F2000000
(1090000000.779000) can0 2E1#0000000000000004
(1090000000.779001) can0 00E#205296020809758A
(1090000000.779002) can0 354#1FFF400000040900
(1090000000.779003) can0 125#90003F5F3AE34B60
(1090000000.780015) can0 5E1#893FE00B0A000080
(1090000000.780016) can0 033#000790000E8007D0
(1090000000.780017) can0 162#00080003EA11F4CE
(1090000000.780018) can0 0A7#2010FA24D125C0A0
(1090000000.785105) can0 193#00080803E6E80000
(1090000000.786149) can0 20E#4E2003A0003FAFFF
(1090000000.786150) can0 522#DF7FD08E6AE84E9C
(1090000000.786151) can0 366#7FDDC8020147CE78
(1090000000.786152) can0 580#0000000396880000
(1090000000.787170) can0 434#040AA0A2F2F30300
(1090000000.787171) can0 2B4#04410600000BB800
(1090000000.787172) can0 6E0#0000000000000000
(1090000000.787173) can0 498#87FFBFFCFA800002
(1090000000.788169) can0 464#000240000090109D
(1090000000.788171) can0 230#D50008E2D4001A00
(1090000000.788172) can0 3C1#7B551FBBDD87292E
(1090000000.788173) can0 153#00000004000C0004
(1090000000.789234) can0 354#1FFF40000003FA00
(1090000000.789235) can0 00E#205296020809758A
(1090000000.789236) can0 5E1#893FE00B0A000080
(1090000000.789237) can0 69E#0440047E1FC01522
(1090000000.789238) can0 125#90003F5F3AE32D60
(1090000000.790231) can0 295#0000000000000840
(1090000000.790232) can0 662#4C20000040000000
(1090000000.790233) can0 28B#0000000000000000
(1090000000.790234) can0 19C#160C201B82002720
(1090000000.791253) can0 0D0#5A610C60F1000000
(1090000000.791254) can0 033#000788000EC007D0
(1090000000.791255) can0 274#00F20BF3107C86B9
(1090000000.791269) can0 0C0#2000000000000000
(1090000000.792274) can0 0A7#2010FA24D125C0A0
(1090000000.792275) can0 5B3#0400000000006800
(1090000000.792276) can0 407#40015FF016401CA0
(1090000000.792292) can0 FFF#0000000000000000
(1090000000.793271) can0 4FD#114E0A4F690F4A08
(1090000000.795126) can0 6E0#0000000000000000
(1090000000.797000) can0 107#0000000000000000
(1090000000.798009) can0 FFF#0000000000000000
(1090000000.798011) can0 32D#00000424CC010000
(1090000000.798012) can0 0D0#62610C60F0000000
(1090000000.799023) can0 2E1#0000000000000004
(1090000000.799039) can0 00E#2052D60208097590
(1090000000.799041) can0 354#1FFF40000003F280
(1090000000.799042) can0 125#90003F5F3AE30F60
(1090000000.800008) can0 5E1#893FE00B0A000080
(1090000000.800009) can0 033#000780000F0007D0
(1090000000.800010) can0 162#00080003EA11F4CE
(1090000000.800011) can0 0A7#2010FA24D125C0A0
(1090000000.801391) can0 1AA#90BEBD44A163E640
(1090000000.805126) can0 193#00080803E6E80000
(1090000000.806127) can0 20E#4E2003A0003FCFFF
(1090000000.806129) can0 522#DF7FD08E6A704E9C
(1090000000.806130) can0 366#7FDDC8020147CE78
(1090000000.806145) can0 580#000000038F080000
(1090000000.807102) can0 434#042AA0A2F2F30300
(1090000000.807103) can0 6E0#0000000000000000
(1090000000.807104) can0 498#87FFBFFCF9800003
(1090000000.807105) can0 230#D40008E2D4001C00
(1090000000.808131) can0 153#00000004000C0004
(1090000000.808132) can0 354#1FFF40000003F280
(1090000000.809166) can0 00E#205296020809758A
(1090000000.809169) can0 5E1#893FE00B0A000080
(1090000000.809170) can0 69E#0440047E1FC01522
(1090000000.809174) can0 125#90003F5F3AE2F160
(1090000000.810167) can0 662#4C20000040000000
(1090000000.810169) can0 28B#0000000000000000
(1090000000.810170) can0 19C#1A08201B82002720
(1090000000.810171) can0 0D0#6A610C60EF000000
(1090000000.811190) can0 033#000778000F4007D0
(1090000000.811192) can0 274#00F20DF1107C86B9
(1090000000.811193) can0 0C0#2000000000000000
(1090000000.811194) can0 0A7#2010FA24D125C0A0
(1090000000.812189) can0 03D#00002B0000000000
(1090000000.812190) can0 FFF#0000000000000000
(1090000000.813234) can0 4CB#8000000000000000
(1090000000.813235) can0 280#18E0027000000000
(1090000000.813236) can0 3C1#7B551FBBDD07A92E
(1090000000.813236) can0 03C#0000040031000000
(1090000000.814229) can0 207#24046048129E94D0
(1090000000.814230) can0 4C9#019915820D00F64B
(1090000000.814231) can0 1D6#020B808030244080
(1090000000.815235) can0 6E0#0000000000000000
(1090000000.816940) can0 107#0000000000000000
(1090000000.818001) can0 FFF#0000000000000000
(1090000000.818002) can0 0BA#06980F041000050C
(1090000000.818003) can0 2C1#01F3CFC7CA9FB43E
(1090000000.818004) can0 295#0000000000000840
(1090000000.818980) can0 2E1#0000000000000004
(1090000000.818981) can0 00E#2052D60208097584
(1090000000.818982) can0 354#1FFF40000003E380
(1090000000.818986) can0 125#90003F5F3AE2D360
(1090000000.819986) can0 5E1#893FE00B0A000080
(1090000000.819987) can0 0D0#72610C60EE000000
(1090000000.819988) can0 033#000770000F8007D0
(1090000000.819989) can0 585#0040000000020018
(1090000000.821007) can0 162#00080003EA11F4CE
(1090000000.821008) can0 0A7#2010FA24D125C0A0
(1090000000.821009) can0 577#0000080000000148
(1090000000.825048) can0 193#00080803E6E80000
(1090000000.826066) can0 20E#4E2003A0003FAFFF
(1090000000.826067) can0 522#DF7FD08E69F84E9C
(1090000000.826068) can0 366#7FDDC8020147CE78
(1090000000.826069) can0 580#0000000387880000
(1090000000.827069) can0 434#044AA0A2F2F30300
(1090000000.827070) can0 6E0#0000000000000000
(1090000000.827071) can0 498#87FFBFFCF8800004
(1090000000.827072) can0 230#D30008E2D4001E00
(1090000000.828124) can0 153#00000004000C0004
(1090000000.828125) can0 354#1FFF40000003E380
(1090000000.829146) can0 00E#2052960208097590
(1090000000.829147) can0 5E1#893FE00B0A000080
(1090000000.829148) can0 69E#0440047E1FC01522
(1090000000.829148) can0 125#90003F5F3AE2B560
(1090000000.830163) can0 662#4C20000040000000
(1090000000.830165) can0 28B#0000000000000000
(1090000000.830166) can0 19C#1E04201B82002720
(1090000000.830167) can0 0D0#7A610C60ED000000
(1090000000.831152) can0 033#000768000FC007D0
(1090000000.831153) can0 274#00F20FEF107C86B9
(1090000000.831154) can0 0C0#2000000000000000
(1090000000.831155) can0 0A7#2010FA24D125C0A0
(1090000000.832179) can0 1CA#3FF9FF8000000CA0
(1090000000.832180) can0 FFF#0000000000000000
(1090000000.835108) can0 6E0#0000000000000000
(1090000000.836108) can0 66C#0080100020000020
(1090000000.837146) can0 107#0000000000000000
(1090000000.838170) can0 FFF#0000000000000000
(1090000000.838172) can0 655#5C004C807000201C
(1090000000.838173) can0 3C1#7B551FBC1C08692E
(1090000000.838173) can0 0D0#02610C60FC000000
(1090000000.839170) can0 2E1#0000000000000004
(1090000000.839171) can0 00E#2052960208097590
(1090000000.839172) can0 354#1FFF40000003D480
(1090000000.839173) can0 125#90003F5F3AE29760
(1090000000.839173) can0 5E1#893FE00B0A000080
(1090000000.840192) can0 033#0007E0000C0007D0
(1090000000.840194) can0 162#00080003EA11F4CE
(1090000000.840195) can0 0A7#2010FA24D125C0A0
(1090000000.840196) can0 2A3#00000003FE803C00
(1090000000.841161) can0 4FD#11430A505B0D4A08
(1090000000.842985) can0 0D7#0000020080000000
(1090000000.845107) can0 193#00080803E6E80000
(1090000000.846127) can0 20E#4E2003A0003F8FFF
(1090000000.846128) can0 522#DF7FD08E71004E9C
(1090000000.846129) can0 366#7FDDC8020147CE78
(1090000000.846130) can0 580#00000003F8080000
(1090000000.847148) can0 434#046800A2F2F30300
(1090000000.847149) can0 6E0#0000000000000000
(1090000000.847150) can0 498#87FFBFFCF7800005
(1090000000.847151) can0 32D#00000424CC010000
(1090000000.848169) can0 230#E20008E2D4000000
(1090000000.848170) can0 153#00000004000C0004
(1090000000.848171) can0 354#1FFF40000003CD00
(1090000000.849169) can0 00E#2052960208097590
(1090000000.849170) can0 5E1#893FE00B0A000080
(1090000000.849171) can0 69E#0440047E1FC01522
(1090000000.849172) can0 125#90003F5F3AE27960
(1090000000.850190) can0 295#0000000000000840
(1090000000.850191) can0 662#4C20000040000000
(1090000000.850192) can0 28B#0000000000000000
(1090000000.850193) can0 19C#0220201B82002720
(1090000000.851190) can0 0D0#0A610C60FB000000
(1090000000.851191) can0 033#0007D8000C4007D0
(1090000000.851192) can0 274#00F201FD107C86B9
(1090000000.851193) can0 0C0#2000000000000000
(1090000000.852211) can0 6FC#0000075910B75800
(1090000000.852212) can0 0A7#2010FA24D125C0A0
(1090000000.852230) can0 26E#010A00828A6A0A04
(1090000000.852231) can0 3B9#2004720000005C42
(1090000000.853187) can0 239#0000007D00004180
(1090000000.853188) can0 FFF#0000000000000000
(1090000000.854481) can0 21D#0000000000010000
(1090000000.855522) can0 6E0#0000000000000000
(1090000000.856525) can0 FFF#0000000000000000
(1090000000.856526) can0 FFF#0000000000000000
(1090000000.857520) can0 FFF#0000000000000000
(1090000000.857521) can0 107#0000000000000000
(1090000000.857522) can0 FFF#0000000000000000
(1090000000.858565) can0 0BA#06980F441000050C
(1090000000.858566) can0 0D0#12610C60FA000000
(1090000000.858567) can0 2E1#0000000000000004
(1090000000.858568) can0 00E#205296020809758A
(1090000000.859589) can0 354#1FFF40000003CD00
(1090000000.859590) can0 125#90003F5F3AE25B60
(1090000000.859591) can0 5E1#893FE00B0A000080
(1090000000.859592) can0 033#0007D0000C8007D0
(1090000000.859607) can0 2E2#18080D4040000118
(1090000000.860606) can0 345#050202C23C774081
(1090000000.860608) can0 430#0034478BFC8012A0
(1090000000.860623) can0 162#00080003EA11F4CE
(1090000000.860624) can0 0A7#2010FA24D125C0A0
(1090000000.861648) can0 130#0001600000000000
(1090000000.861649) can0 497#0000000000000000
(1090000000.861665) can0 FFF#0000000000000000
(1090000000.862647) can0 FFF#0000000000000000
(1090000000.862648) can0 0F4#9A0C010204710240
(1090000000.863645) can0 3C1#7B551FBBDBC8E92E
(1090000000.865084) can0 193#00080803E6E80000
(1090000000.866095) can0 20E#4E2003A0003F8FFF
(1090000000.866096) can0 522#DF7FD08E70884E9C
(1090000000.866097) can0 366#7FDDC8020147CE78
(1090000000.866098) can0 580#00000003F0880000
(1090000000.867089) can0 434#000000A2F2F30300
(1090000000.867090) can0 6E0#0000000000000000
(1090000000.867091) can0 498#87FFBFFCF6800006
(1090000000.867092) can0 230#E10008E2CC000200
(1090000000.868130) can0 4E7#0000001203890000
(1090000000.868131) can0 354#1FFF40000003BE00
(1090000000.869130) can0 00E#2052960208097590
(1090000000.869131) can0 153#00000004000C0004
(1090000000.869132) can0 69E#0440047E1FC01522
(1090000000.869133) can0 125#90003F5F3AE23D60
(1090000000.870184) can0 FFF#0000000000000000
(1090000000.870185) can0 5E1#893FE00B0A000080
(1090000000.870186) can0 662#4C20000040000000
(1090000000.870187) can0 684#28DA8019417C501E
(1090000000.871181) can0 636#24A40000F1003000
(1090000000.871182) can0 2D7#100060E000000008
(1090000000.871183) can0 28B#0000000000000000
(1090000000.871184) can0 19C#061C201B82002720
(1090000000.872177) can0 0D0#1A610C60F9000000
(1090000000.872178) can0 033#0007C8000CC007D0
(1090000000.872179) can0 274#00F203FB107C86B9
(1090000000.872180) can0 0C0#2000000000000000
(1090000000.873219) can0 0A7#2010FA24D125C0A0
(1090000000.873220) can0 2D2#0000480000000000
(1090000000.873221) can0 55C#101C000043863000
(1090000000.873222) can0 FFF#0000000000000000
(1090000000.873223) can0 3E4#0134000005000000
(1090000000.874245) can0 65C#4011D27750000000
(1090000000.874246) can0 577#0000080000000148
(1090000000.875241) can0 6E0#0000000000000000
(1090000000.877003) can0 107#0000000000000000
(1090000000.878005) can0 FFF#0000000000000000
(1090000000.878007) can0 295#0000000000000840
(1090000000.879005) can0 2E1#0000000000000004
(1090000000.879006) can0 00E#205296020809758A
(1090000000.879007) can0 354#1FFF40000003B680
(1090000000.879008) can0 125#90003F5F3AE21F60
(1090000000.880025) can0 5E1#893FE00B0A000080
(1090000000.880029) can0 0D0#22610C60F8000000
(1090000000.880030) can0 033#0007C0000D0007D0
(1090000000.880031) can0 162#00080003EA11F4CE
(1090000000.880032) can0 0A7#2010FA24D125C0A0
(1090000000.885085) can0 193#00080803E6E80000
(1090000000.886106) can0 20E#4E2003A0003F8FFF
(1090000000.886107) can0 522#DF7FD08E70104EDC
(1090000000.886108) can0 366#7FDDC8020147CE78
(1090000000.886109) can0 580#00000003E9080000
(1090000000.887127) can0 434#002000A2F2F30300
(1090000000.887129) can0 2B4#04410600000BB800
(1090000000.887130) can0 6E0#0000000000000000
(1090000000.887131) can0 498#87FFBFFCF5800007
(1090000000.888149) can0 464#0002400000900F9E
(1090000000.888150) can0 230#E00008E2D4000400
(1090000000.888151) can0 3C1#7B551FBC1AC9A92E
(1090000000.888152) can0 354#1FFF40000003B680
(1090000000.889148) can0 153#00000004000C0004
(1090000000.889149) can0 00E#2052D6020809758A
(1090000000.889150) can0 69E#0440047E1FC01522
(1090000000.889151) can0 125#90003F5F3AE3E160
(1090000000.890170) can0 5E1#893FE00B0A000080
(1090000000.890171) can0 662#4C20000040000000
(1090000000.890172) can0 28B#0000000000000000
(1090000000.890173) can0 19C#0A18201B82002720
(1090000000.890174) can0 0D0#2A610C60F7000000
(1090000000.891166) can0 033#0007B8000D4007D0
(1090000000.891167) can0 274#00F205F9107C86B9
(1090000000.891168) can0 0C0#2000000000000000
(1090000000.891169) can0 0A7#2010FA24D125C0A0
(1090000000.892205) can0 5B3#0400000000006800
(1090000000.892206) can0 407#40015FF016401CA0
(1090000000.892207) can0 4FD#11470A505F0DCA08
(1090000000.892207) can0 FFF#0000000000000000
(1090000000.893875) can0 FFF#0000000000000000
(1090000000.895106) can0 6E0#0000000000000000
(1090000000.897065) can0 107#0000000000000000
(1090000000.898088) can0 FFF#0000000000000000
(1090000000.898089) can0 0BA#069811041000050C
(1090000000.898090) can0 273#0000000800000000
(1090000000.898091) can0 2E1#0000000000000004
(1090000000.899085) can0 354#1FFF40000003A780
(1090000000.899086) can0 00E#2052D60208097590
(1090000000.899087) can0 5E1#893FE00B0A000080
(1090000000.899088) can0 125#90003F5F3AE3C360
(1090000000.900109) can0 0D0#32610C60F6000000
(1090000000.900110) can0 033#0007B0000D8007D0
(1090000000.900111) can0 162#00080003EA11F4CE
(1090000000.900112) can0 0A7#2010FA24D125C0A0
(1090000000.901092) can0 1C4#0000020002C00000
(1090000000.901093) can0 2A4#4E1E011C040898D0
(1090000000.901094) can0 FFF#0000000000000000
(1090000000.901095) can0 371#0106000000000880
(1090000000.902110) can0 67D#000AC00208000220
(1090000000.902114) can0 51B#281A3209B28180C1
(1090000000.902115) can0 32D#00000424CC010000
(1090000000.902116) can0 0CC#434116B568AFA200
(1090000000.902116) can0 FFF#0000000000000000
(1090000000.903127) can0 006#0800006400000000
(1090000000.905045) can0 193#00080803E6E80000
(1090000000.906058) can0 20E#4E2003A0003F8FFF
(1090000000.906060) can0 522#DF7FD08E6F984EDC
(1090000000.906061) can0 366#7FDDC8020147CE78
(1090000000.906076) can0 580#00000003E1880000
(1090000000.907066) can0 434#005680A2F2F30300
(1090000000.907067) can0 6E0#0000000000000000
(1090000000.907068) can0 498#87FFBFFCF4800008
(1090000000.907068) can0 230#DF0008E2D4000600
(1090000000.908075) can0 153#00000004000C0004
(1090000000.909105) can0 354#1FFF40000003A780
(1090000000.909106) can0 00E#205296020809758A
(1090000000.909107) can0 5E1#893FE00B0A000080
(1090000000.909107) can0 69E#0440047E1FC01522
(1090000000.909108) can0 125#90003F5F3AE3A560
(1090000000.910104) can0 295#0000000000000840
